(1732863321.460440) vcan0 185##035CFD9F30059654967
(1732863321.463240) vcan0 230##06E8C884A0059654967
(1732863321.465556) vcan0 244##0000000019559654967
(1732863321.465652) vcan0 200##0000000019559654967
(1732863321.467665) vcan0 302##0220ADD680059654967
(1732863321.470198) vcan0 221##0FB9FDD300059654967
(1732863321.472339) vcan0 388##0B5EEE3100059654967
(1732863321.474189) vcan0 000##0000000000059654967
(1732863321.476162) vcan0 27B##0C0DE0AC00059654967
(1732863321.478327) vcan0 19A##06BC60BA40059654967
(1732863321.480854) vcan0 1C3##071BB91710059654967
(1732863321.484782) vcan0 244##0000000011F59654967
(1732863321.484802) vcan0 200##0000000011F59654967
(1732863321.487332) vcan0 31C##03AF402000059654967
(1732863321.490693) vcan0 2F9##076772BD90059654967
(1732863321.492902) vcan0 000##0000000000059654967
(1732863321.495521) vcan0 351##0E24263600059654967
(1732863321.499174) vcan0 3AD##06FD90B7E0059654967
(1732863321.500874) vcan0 244##0000000014459654967
(1732863321.501723) vcan0 200##0000000014459654967
(1732863321.502272) vcan0 000##0000000000059654967
(1732863321.506489) vcan0 16E##031839A220059654967
(1732863321.508378) vcan0 000##0000000000059654967
(1732863321.510216) vcan0 26C##03681DF660059654967
(1732863321.512660) vcan0 106##068D7348E0059654967
(1732863321.512681) vcan0 244##000000001C259654967
(1732863321.512712) vcan0 200##000000001C259654967
(1732863321.515177) vcan0 13A##06A11388F0059654967
(1732863321.517007) vcan0 2BF##037C0EDFC0059654967
(1732863321.519215) vcan0 000##0000000000059654967
(1732863321.521262) vcan0 2A9##04BF461CD0059654967
(1732863321.523652) vcan0 000##0000000000059654967
(1732863321.525748) vcan0 33F##03405DFFA0059654967
(1732863321.527541) vcan0 000##0000000000059654967
(1732863321.528543) vcan0 244##0000000010359654967
(1732863321.528858) vcan0 200##0000000010359654967
(1732863321.530782) vcan0 3D4##0119FC97B0059654967
(1732863321.534096) vcan0 224##0676777250059654967
(1732863321.535914) vcan0 3B1##039AF81D20059654967
(1732863321.539332) vcan0 2A3##02A6F44E00059654967
(1732863321.539865) vcan0 244##0000000016259654967
(1732863321.539942) vcan0 200##0000000016259654967
(1732863321.542101) vcan0 000##0000000000059654967
(1732863321.545922) vcan0 271##030FA8A700059654967
(1732863321.548634) vcan0 3AF##0543AB0DD0059654967
(1732863321.550513) vcan0 244##000000001C259654967
(1732863321.550965) vcan0 200##000000001C259654967
(1732863321.554371) vcan0 000##0000000000059654967
(1732863321.557929) vcan0 16B##07FCD65480059654967
(1732863321.559653) vcan0 145##03148082A0059654967
(1732863321.562136) vcan0 244##0000000019A59654967
(1732863321.562449) vcan0 200##0000000019A59654967
(1732863321.562905) vcan0 344##0650F75780059654967
(1732863321.565208) vcan0 165##07B5D21ED0059654967
(1732863321.568266) vcan0 346##03F4DB6430059654967
(1732863321.574383) vcan0 244##0000000018A59654967
(1732863321.574442) vcan0 200##0000000018A59654967
(1732863321.574525) vcan0 259##06EB3CA850059654967
(1732863321.577317) vcan0 23E##043E8CAE60059654967
(1732863321.580261) vcan0 000##0000000000059654967
(1732863321.584822) vcan0 244##0000000016559654967
(1732863321.584968) vcan0 200##0000000016559654967
(1732863321.585201) vcan0 000##0000000000059654967
(1732863321.589360) vcan0 137##0754C84120059654967
(1732863321.592051) vcan0 000##0000000000059654967
(1732863321.594133) vcan0 000##0000000000059654967
(1732863321.595459) vcan0 244##000000001A659654967
(1732863321.595534) vcan0 200##000000001A659654967
(1732863321.598102) vcan0 3EC##02C1E06D10059654967
(1732863321.600492) vcan0 19E##03429AF9B0059654967
(1732863321.603605) vcan0 3AF##066436DAC0059654967
(1732863321.605941) vcan0 000##0000000000059654967
(1732863321.607886) vcan0 2F4##05444C1960059654967
(1732863321.609859) vcan0 145##01D9F26390059654967
(1732863321.611736) vcan0 244##000000001CB59654967
(1732863321.611844) vcan0 30F##0711A7EAA0059654967
(1732863321.611907) vcan0 200##000000001CB59654967
(1732863321.615758) vcan0 000##0000000000059654967
(1732863321.619715) vcan0 000##0000000000059654967
(1732863321.622647) vcan0 244##0000000018159654967
(1732863321.622846) vcan0 200##0000000018159654967
(1732863321.622867) vcan0 000##0000000000059654967
(1732863321.625937) vcan0 166##0536975970059654967
(1732863321.627709) vcan0 13D##05038FDC70059654967
(1732863321.629608) vcan0 000##0000000000059654967
(1732863321.632262) vcan0 1D9##0660F1D2D0059654967
(1732863321.634194) vcan0 244##0000000016759654967
(1732863321.634479) vcan0 200##0000000016759654967
(1732863321.636766) vcan0 24F##03D78FA390059654967
(1732863321.639302) vcan0 224##0272DC63B0059654967
(1732863321.641251) vcan0 10B##03C633FC30059654967
(1732863321.643289) vcan0 1D6##069EFB8BA0059654967
(1732863321.644942) vcan0 244##0000000016C59654967
(1732863321.645647) vcan0 200##0000000016C59654967
(1732863321.646283) vcan0 16F##06A8612280059654967
(1732863321.649974) vcan0 1D4##08B7806400059654967
(1732863321.651980) vcan0 3BE##0160CFB190059654967
(1732863321.654701) vcan0 29D##0781F0ACD0059654967
(1732863321.657238) vcan0 1C3##03F52EEC30059654967
(1732863321.657737) vcan0 244##0000000015D59654967
(1732863321.657743) vcan0 200##0000000015D59654967
(1732863321.660181) vcan0 122##0378FAEB10059654967
(1732863321.662663) vcan0 143##03B82F1FC0059654967
(1732863321.664410) vcan0 1DC##070CAF6A90059654967
(1732863321.666860) vcan0 394##01CD7E71A0059654967
(1732863321.669199) vcan0 000##0000000000059654967
(1732863321.669534) vcan0 244##0000000010A59654967
(1732863321.669645) vcan0 200##0000000010A59654967
(1732863321.671874) vcan0 18E##0689764900059654967
(1732863321.674177) vcan0 13B##06D98FDD00059654967
(1732863321.676220) vcan0 000##0000000000059654967
(1732863321.678413) vcan0 218##02D99718E0059654967
(1732863321.680331) vcan0 322##095ECBEF00059654967
(1732863321.681639) vcan0 244##0000000019259654967
(1732863321.681779) vcan0 200##0000000019259654967
(1732863321.682873) vcan0 248##0639B54920059654967
(1732863321.685355) vcan0 217##03EE3801C0059654967
(1732863321.687560) vcan0 000##0000000000059654967
(1732863321.692922) vcan0 244##0000000017359654967
(1732863321.693084) vcan0 200##0000000017359654967
(1732863321.693576) vcan0 336##012A97B930059654967
(1732863321.698212) vcan0 000##0000000000059654967
(1732863321.702597) vcan0 256##0D45D5C500059654967
(1732863321.707650) vcan0 244##0000000015A59654967
(1732863321.707902) vcan0 200##0000000015A59654967
(1732863321.710715) vcan0 3AA##04816F79A0059654967
(1732863321.715939) vcan0 3C2##06EF31D870059654967
(1732863321.718112) vcan0 243##057B52F560059654967
(1732863321.719083) vcan0 244##0000000014159654967
(1732863321.719230) vcan0 200##0000000014159654967
(1732863321.720243) vcan0 000##0000000000059654967
(1732863321.723540) vcan0 363##06F67722F0059654967
(1732863321.725692) vcan0 000##0000000000059654967
(1732863321.727576) vcan0 20D##04471C9800059654967
(1732863321.729562) vcan0 244##000000001C059654967
(1732863321.729681) vcan0 200##000000001C059654967
(1732863321.729940) vcan0 3FE##0244858250059654967
(1732863321.733086) vcan0 30E##020EC3B200059654967
(1732863321.735349) vcan0 000##0000000000059654967
(1732863321.737468) vcan0 3B2##0218C022B0059654967
(1732863321.739906) vcan0 173##070DA64A80059654967
(1732863321.740824) vcan0 244##0000000018959654967
(1732863321.740874) vcan0 200##0000000018959654967
(1732863321.742569) vcan0 000##0000000000059654967
(1732863321.744890) vcan0 000##0000000000059654967
(1732863321.747043) vcan0 1A2##055804A920059654967
(1732863321.748810) vcan0 269##0D27F94D00059654967
(1732863321.751532) vcan0 244##0000000014759654967
(1732863321.752181) vcan0 22C##055190E2B0059654967
(1732863321.752318) vcan0 200##0000000014759654967
(1732863321.755117) vcan0 2D4##05679306F0059654967
(1732863321.757733) vcan0 181##07E61B7500059654967
(1732863321.761021) vcan0 323##013545CE50059654967
(1732863321.763336) vcan0 1A4##050CE6C210059654967
(1732863321.763652) vcan0 244##0000000017259654967
(1732863321.763718) vcan0 200##0000000017259654967
(1732863321.767209) vcan0 183##06D8E8FB10059654967
(1732863321.771459) vcan0 1A1##04EB21D810059654967
(1732863321.774822) vcan0 244##0000000013359654967
(1732863321.774978) vcan0 200##0000000013359654967
(1732863321.775086) vcan0 3D7##074B70B000059654967
(1732863321.778112) vcan0 000##0000000000059654967
(1732863321.780097) vcan0 206##07425E8540059654967
(1732863321.782748) vcan0 217##05957BB790059654967
(1732863321.784514) vcan0 000##0000000000059654967
(1732863321.785622) vcan0 244##000000001A859654967
(1732863321.785921) vcan0 200##000000001A859654967
(1732863321.788209) vcan0 000##0000000000059654967
(1732863321.790881) vcan0 2BC##0704071C50059654967
(1732863321.792892) vcan0 3CA##040A079250059654967
(1732863321.795260) vcan0 312##05B9BB9F60059654967
(1732863321.796784) vcan0 244##000000001BF59654967
(1732863321.796869) vcan0 200##000000001BF59654967
(1732863321.802367) vcan0 351##0798381E60059654967
(1732863321.804668) vcan0 266##04287C4D20059654967
(1732863321.807365) vcan0 15B##0273FD8900059654967
(1732863321.807954) vcan0 244##0000000013859654967
(1732863321.808035) vcan0 200##0000000013859654967
(1732863321.809098) vcan0 1B7##078B72AFF0059654967
(1732863321.811274) vcan0 1AA##04496AB3B0059654967
(1732863321.814153) vcan0 2B1##068829F4C0059654967
(1732863321.816247) vcan0 000##0000000000059654967
(1732863321.818610) vcan0 244##000000001EA59654967
(1732863321.818917) vcan0 200##000000001EA59654967
(1732863321.819737) vcan0 3FC##02E7215E00059654967
(1732863321.823668) vcan0 273##0ADE602000059654967
(1732863321.825731) vcan0 1B3##018A4BC8A0059654967
(1732863321.827993) vcan0 17C##05C0D56B00059654967
(1732863321.830153) vcan0 2A2##050C5BD9E0059654967
(1732863321.832222) vcan0 3E8##023AB15E00059654967
(1732863321.834583) vcan0 244##0000000016659654967
(1732863321.834713) vcan0 200##0000000016659654967
(1732863321.834982) vcan0 363##0295FBB300059654967
(1732863321.837933) vcan0 284##03E6E9A750059654967
(1732863321.843256) vcan0 1A9##05894B1D50059654967
(1732863321.845169) vcan0 000##0000000000059654967
(1732863321.845860) vcan0 244##000000001E959654967
(1732863321.845911) vcan0 200##000000001E959654967
(1732863321.848271) vcan0 2A7##0395BB9B60059654967
(1732863321.850870) vcan0 199##070F8985F0059654967
(1732863321.854224) vcan0 000##0000000000059654967
(1732863321.856366) vcan0 39A##018589F670059654967
(1732863321.859581) vcan0 28F##048D80C560059654967
(1732863321.861392) vcan0 1EF##03E4DB68B0059654967
(1732863321.861823) vcan0 244##000000001A659654967
(1732863321.861889) vcan0 200##000000001A659654967
(1732863321.863816) vcan0 1B5##0480FF0620059654967
(1732863321.865725) vcan0 000##0000000000059654967
(1732863321.868133) vcan0 000##0000000000059654967
(1732863321.870938) vcan0 218##02E9F2B8F0059654967
(1732863321.872547) vcan0 244##000000001C659654967
(1732863321.872601) vcan0 200##000000001C659654967
(1732863321.874725) vcan0 3A8##0636B12000059654967
(1732863321.876776) vcan0 000##0000000000059654967
(1732863321.880734) vcan0 1B3##073B507720059654967
(1732863321.883740) vcan0 244##0000000014759654967
(1732863321.883868) vcan0 200##0000000014759654967
(1732863321.884916) vcan0 181##04432C35D0059654967
(1732863321.888783) vcan0 147##0212DE1DD0059654967
(1732863321.891304) vcan0 36C##067662FEE0059654967
(1732863321.893641) vcan0 393##0673401050059654967
(1732863321.894694) vcan0 244##000000001C559654967
(1732863321.894800) vcan0 200##000000001C559654967
(1732863321.897166) vcan0 000##0000000000059654967
(1732863321.899725) vcan0 000##0000000000059654967
(1732863321.907715) vcan0 3B0##01BB0AED80059654967
(1732863321.909993) vcan0 000##0000000000059654967
(1732863321.910514) vcan0 244##000000001C559654967
(1732863321.910690) vcan0 200##000000001C559654967
(1732863321.910746) vcan0 188##0000000000059654967
(1732863321.912790) vcan0 164##0228545F30059654967
(1732863321.916765) vcan0 202##018FA01F20059654967
(1732863321.922693) vcan0 15B##05E2EFEEF0059654967
(1732863321.922667) vcan0 244##0000000012559654967
(1732863321.923660) vcan0 200##0000000012559654967
(1732863321.928107) vcan0 3FC##042B0B7300059654967
(1732863321.936122) vcan0 27E##01BC23BA40059654967
(1732863321.938312) vcan0 244##000000001FC59654967
(1732863321.938401) vcan0 200##000000001FC59654967
(1732863321.938516) vcan0 173##03DA8076C0059654967
(1732863321.940977) vcan0 2B0##04D972B270059654967
(1732863321.944255) vcan0 2DE##02FCB2C320059654967
(1732863321.949143) vcan0 244##0000000016B59654967
(1732863321.949232) vcan0 200##0000000016B59654967
(1732863321.949862) vcan0 284##07DA6C8250059654967
(1732863321.952291) vcan0 20F##0664351F00059654967
(1732863321.956802) vcan0 000##0000000000059654967
(1732863321.961822) vcan0 2F6##03D6BC0610059654967
(1732863321.962496) vcan0 244##0000000012759654967
(1732863321.962578) vcan0 200##0000000012759654967
(1732863321.965359) vcan0 1EC##01AA85B3F0059654967
(1732863321.967406) vcan0 000##0000000000059654967
(1732863321.969602) vcan0 217##0221FE4870059654967
(1732863321.972204) vcan0 33C##010576F7B0059654967
(1732863321.974193) vcan0 244##0000000013E59654967
(1732863321.974250) vcan0 200##0000000013E59654967
(1732863321.978814) vcan0 27A##0FF8FD3E00059654967
(1732863321.980688) vcan0 16D##029F6A7D50059654967
(1732863321.983429) vcan0 000##0000000000059654967
(1732863321.984980) vcan0 244##0000000015159654967
(1732863321.985340) vcan0 200##0000000015159654967
(1732863321.990796) vcan0 348##07AF626AB0059654967
(1732863321.994248) vcan0 10E##015B7D0BB0059654967
(1732863321.996296) vcan0 218##03D9E53BE0059654967
(1732863321.996644) vcan0 244##000000001C459654967
(1732863321.996780) vcan0 200##000000001C459654967
(1732863321.998746) vcan0 3E2##069FB3CF60059654967
(1732863322.000901) vcan0 3F0##07518EA66005A654967
(1732863322.003222) vcan0 11C##03E628DFF005A654967
(1732863322.005592) vcan0 000##000000000005A654967
(1732863322.007927) vcan0 3A2##028D38F4D005A654967
(1732863322.010212) vcan0 191##02204618E005A654967
(1732863322.013020) vcan0 244##000000001C15A654967
(1732863322.013422) vcan0 200##000000001C15A654967
(1732863322.013894) vcan0 28C##0557489DA005A654967
(1732863322.017497) vcan0 32A##079D4F4A3005A654967
(1732863322.019678) vcan0 261##011975666005A654967
(1732863322.022614) vcan0 000##000000000005A654967
(1732863322.024741) vcan0 244##0000000015A5A654967
(1732863322.024864) vcan0 200##0000000015A5A654967
(1732863322.027816) vcan0 3A4##0337DD58C005A654967
(1732863322.030910) vcan0 000##000000000005A654967
(1732863322.032935) vcan0 2F6##01451F3F8005A654967
(1732863322.035555) vcan0 27D##05D974040005A654967
(1732863322.036878) vcan0 244##0000000013E5A654967
(1732863322.036904) vcan0 200##0000000013E5A654967
(1732863322.040670) vcan0 000##000000000005A654967
(1732863322.044087) vcan0 3C2##0D58C0960005A654967
(1732863322.047040) vcan0 18B##030E147B3005A654967
(1732863322.052726) vcan0 244##000000001E75A654967
(1732863322.053040) vcan0 200##000000001E75A654967
(1732863322.053757) vcan0 2FD##014E9E6A7005A654967
(1732863322.056762) vcan0 1B2##05DCDE754005A654967
(1732863322.059579) vcan0 3D7##059290D54005A654967
(1732863322.064986) vcan0 244##000000001085A654967
(1732863322.065146) vcan0 2A1##06BB3A169005A654967
(1732863322.065444) vcan0 200##000000001085A654967
(1732863322.072731) vcan0 2E2##04A1D612D005A654967
(1732863322.076432) vcan0 244##000000001CD5A654967
(1732863322.076488) vcan0 200##000000001CD5A654967
(1732863322.078001) vcan0 343##07A461A0D005A654967
(1732863322.081348) vcan0 1D0##038BC99A5005A654967
(1732863322.087066) vcan0 000##000000000005A654967
(1732863322.087965) vcan0 244##000000001DF5A654967
(1732863322.088033) vcan0 200##000000001DF5A654967
(1732863322.090798) vcan0 280##02D6DC418005A654967
(1732863322.094918) vcan0 37C##05B267331005A654967
(1732863322.097224) vcan0 3E9##010671672005A654967
(1732863322.099174) vcan0 329##047D48A66005A654967
(1732863322.099531) vcan0 244##000000001E65A654967
(1732863322.099607) vcan0 200##000000001E65A654967
(1732863322.111694) vcan0 276##019822BDD005A654967
(1732863322.115169) vcan0 2FB##059B85238005A654967
(1732863322.115564) vcan0 244##0000000012A5A654967
(1732863322.116014) vcan0 200##0000000012A5A654967
(1732863322.117497) vcan0 000##000000000005A654967
(1732863322.119909) vcan0 1EB##0294C9771005A654967
(1732863322.123255) vcan0 32E##079DD6F9E005A654967
(1732863322.125391) vcan0 2C5##02EEBDB06005A654967
(1732863322.126670) vcan0 244##000000001045A654967
(1732863322.126795) vcan0 200##000000001045A654967
(1732863322.128750) vcan0 000##000000000005A654967
(1732863322.131652) vcan0 000##000000000005A654967
(1732863322.134811) vcan0 293##05BC7A7B2005A654967
(1732863322.138243) vcan0 1E2##01BCBAC63005A654967
(1732863322.138595) vcan0 244##0000000014A5A654967
(1732863322.138694) vcan0 200##0000000014A5A654967
(1732863322.146631) vcan0 157##054577655005A654967
(1732863322.149661) vcan0 244##000000001B85A654967
(1732863322.149974) vcan0 200##000000001B85A654967
(1732863322.152747) vcan0 253##097A73D80005A654967
(1732863322.158070) vcan0 26D##06B86F5CF005A654967
(1732863322.159925) vcan0 309##03EEB4E57005A654967
(1732863322.161495) vcan0 244##000000001535A654967
(1732863322.162538) vcan0 200##000000001535A654967
(1732863322.162903) vcan0 000##000000000005A654967
(1732863322.165617) vcan0 000##000000000005A654967
(1732863322.167995) vcan0 210##011E107B9005A654967
(1732863322.174468) vcan0 244##0000000018F5A654967
(1732863322.174600) vcan0 200##0000000018F5A654967
(1732863322.176409) vcan0 000##000000000005A654967
(1732863322.178663) vcan0 000##000000000005A654967
(1732863322.180740) vcan0 1F5##0179D0F6E005A654967
(1732863322.183234) vcan0 279##044DD7CBA005A654967
(1732863322.185665) vcan0 244##000000001135A654967
(1732863322.185788) vcan0 200##000000001135A654967
(1732863322.187588) vcan0 274##043646F6B005A654967
(1732863322.191701) vcan0 220##0612866E3005A654967
(1732863322.195950) vcan0 340##02A72C8B3005A654967
(1732863322.197834) vcan0 244##000000001295A654967
(1732863322.197932) vcan0 200##000000001295A654967
(1732863322.197988) vcan0 296##05A126122005A654967
(1732863322.201172) vcan0 116##051744FED005A654967
(1732863322.208215) vcan0 378##03028DB69005A654967
(1732863322.208796) vcan0 244##000000001955A654967
(1732863322.208944) vcan0 200##000000001955A654967
(1732863322.213029) vcan0 3C5##0302F11E5005A654967
(1732863322.215101) vcan0 138##03F8FAACE005A654967
(1732863322.217786) vcan0 000##000000000005A654967
(1732863322.220304) vcan0 244##000000001955A654967
(1732863322.220549) vcan0 200##000000001955A654967
(1732863322.221575) vcan0 101##075DA38FA005A654967
(1732863322.227509) vcan0 000##000000000005A654967
(1732863322.230382) vcan0 000##000000000005A654967
(1732863322.232573) vcan0 195##0520558F3005A654967
(1732863322.232820) vcan0 244##000000001AF5A654967
(1732863322.232867) vcan0 200##000000001AF5A654967
(1732863322.235883) vcan0 3FB##0537DD78A005A654967
(1732863322.238548) vcan0 000##000000000005A654967
(1732863322.242418) vcan0 000##000000000005A654967
(1732863322.244287) vcan0 1DF##06AF4C664005A654967
(1732863322.245465) vcan0 244##000000001D85A654967
(1732863322.245525) vcan0 200##000000001D85A654967
(1732863322.246569) vcan0 1B9##0518E9D20005A654967
(1732863322.251636) vcan0 317##04E43C84F005A654967
(1732863322.256071) vcan0 242##05BA6042D005A654967
(1732863322.256725) vcan0 244##000000001F75A654967
(1732863322.256788) vcan0 200##000000001F75A654967
(1732863322.258540) vcan0 000##000000000005A654967
(1732863322.261099) vcan0 397##07AA6DC02005A654967
(1732863322.263909) vcan0 3A0##0277EB0CF005A654967
(1732863322.266149) vcan0 2D1##0795447DC005A654967
(1732863322.268929) vcan0 249##04DDF7FD2005A654967
(1732863322.272606) vcan0 000##000000000005A654967
(1732863322.272930) vcan0 244##000000001135A654967
(1732863322.273504) vcan0 200##000000001135A654967
(1732863322.275961) vcan0 2E3##076E9C189005A654967
(1732863322.278353) vcan0 399##064DECC78005A654967
(1732863322.280557) vcan0 27C##0AD03F940005A654967
(1732863322.283631) vcan0 000##000000000005A654967
(1732863322.283968) vcan0 244##000000001B95A654967
(1732863322.283974) vcan0 200##000000001B95A654967
(1732863322.287000) vcan0 208##050B7F846005A654967
(1732863322.288877) vcan0 1B4##0475853E8005A654967
(1732863322.293332) vcan0 2AA##074108F6D005A654967
(1732863322.295413) vcan0 244##000000001D85A654967
(1732863322.295517) vcan0 200##000000001D85A654967
(1732863322.296468) vcan0 108##051144DC1005A654967
(1732863322.299011) vcan0 3BD##04487EF4A005A654967
(1732863322.301242) vcan0 1EE##0620C6FFA005A654967
(1732863322.306075) vcan0 105##038893185005A654967
(1732863322.306680) vcan0 244##000000001D55A654967
(1732863322.306733) vcan0 200##000000001D55A654967
(1732863322.308420) vcan0 3FC##028CCACA5005A654967
(1732863322.310879) vcan0 255##016E9D2CD005A654967
(1732863322.314130) vcan0 000##000000000005A654967
(1732863322.316086) vcan0 29F##0114F7558005A654967
(1732863322.317681) vcan0 244##000000001D15A654967
(1732863322.317747) vcan0 200##000000001D15A654967
(1732863322.319847) vcan0 317##033ED4582005A654967
(1732863322.322730) vcan0 2E1##06A9D2B10005A654967
(1732863322.325034) vcan0 1FA##05128515E005A654967
(1732863322.327328) vcan0 245##05128B5FC005A654967
(1732863322.330545) vcan0 000##000000000005A654967
(1732863322.332909) vcan0 242##06676A9F0005A654967
(1732863322.333827) vcan0 244##0000000015E5A654967
(1732863322.334293) vcan0 200##0000000015E5A654967
(1732863322.335275) vcan0 000##000000000005A654967
(1732863322.337926) vcan0 15D##0791B693E005A654967
(1732863322.344012) vcan0 2AD##01CDB911A005A654967
(1732863322.345549) vcan0 244##000000001995A654967
(1732863322.345631) vcan0 200##000000001995A654967
(1732863322.346954) vcan0 000##000000000005A654967
(1732863322.350213) vcan0 114##05C361D8D005A654967
(1732863322.353318) vcan0 221##05B9B4D11005A654967
(1732863322.356422) vcan0 232##073ED2076005A654967
(1732863322.358576) vcan0 3DE##02723BEB4005A654967
(1732863322.360367) vcan0 114##0574E727E005A654967
(1732863322.362179) vcan0 244##000000001AD5A654967
(1732863322.362185) vcan0 200##000000001AD5A654967
(1732863322.363558) vcan0 000##000000000005A654967
(1732863322.366723) vcan0 000##000000000005A654967
(1732863322.370033) vcan0 2DD##02407C9FB005A654967
(1732863322.372862) vcan0 000##000000000005A654967
(1732863322.373397) vcan0 244##0000000014D5A654967
(1732863322.373471) vcan0 200##0000000014D5A654967
(1732863322.377166) vcan0 3F7##0158E9087005A654967
(1732863322.379480) vcan0 170##017112E3A005A654967
(1732863322.381763) vcan0 277##02C5385A6005A654967
(1732863322.383594) vcan0 326##0568C73D5005A654967
(1732863322.383843) vcan0 244##0000000017A5A654967
(1732863322.383894) vcan0 200##0000000017A5A654967
(1732863322.385959) vcan0 2E4##0234055D4005A654967
(1732863322.388890) vcan0 000##000000000005A654967
(1732863322.391586) vcan0 270##072500604005A654967
(1732863322.393436) vcan0 000##000000000005A654967
(1732863322.395411) vcan0 244##0000000018A5A654967
(1732863322.395597) vcan0 200##0000000018A5A654967
(1732863322.396298) vcan0 315##0444B2F2D005A654967
(1732863322.398691) vcan0 108##0407072F3005A654967
(1732863322.402526) vcan0 1E1##01980521C005A654967
(1732863322.407009) vcan0 171##023E221ED005A654967
(1732863322.407483) vcan0 244##000000001C45A654967
(1732863322.407543) vcan0 200##000000001C45A654967
(1732863322.411183) vcan0 248##022FA9D72005A654967
(1732863322.412907) vcan0 188##000000000005A654967
(1732863322.413813) vcan0 000##000000000005A654967
(1732863322.416522) vcan0 36D##076634926005A654967
(1732863322.418063) vcan0 244##000000001545A654967
(1732863322.418146) vcan0 200##000000001545A654967
(1732863322.420330) vcan0 248##03C32E764005A654967
(1732863322.422362) vcan0 1AD##055CA23B8005A654967
(1732863322.424270) vcan0 19E##07F714250005A654967
(1732863322.427637) vcan0 15F##047E2B0C5005A654967
(1732863322.431127) vcan0 244##0000000010E5A654967
(1732863322.431883) vcan0 200##0000000010E5A654967
(1732863322.436095) vcan0 3FA##0278C9843005A654967
(1732863322.438802) vcan0 299##051EB8CE9005A654967
(1732863322.441849) vcan0 3B0##069BF6909005A654967
(1732863322.442552) vcan0 244##000000001695A654967
(1732863322.442650) vcan0 200##000000001695A654967
(1732863322.445284) vcan0 2ED##049E744AB005A654967
(1732863322.447249) vcan0 19A##01226E602005A654967
(1732863322.450050) vcan0 3D8##02AFCAA20005A654967
(1732863322.451928) vcan0 000##000000000005A654967
(1732863322.453604) vcan0 244##000000001BE5A654967
(1732863322.453728) vcan0 200##000000001BE5A654967
(1732863322.454243) vcan0 000##000000000005A654967
(1732863322.456538) vcan0 3A6##050CF7307005A654967
(1732863322.458579) vcan0 3D9##021210800005A654967
(1732863322.460507) vcan0 000##000000000005A654967
(1732863322.462638) vcan0 1A6##030E2B675005A654967
(1732863322.464755) vcan0 244##0000000018A5A654967
(1732863322.464871) vcan0 200##0000000018A5A654967
(1732863322.467205) vcan0 2AB##046733540005A654967
(1732863322.470288) vcan0 22D##063CA4049005A654967
(1732863322.472965) vcan0 379##08CA838C0005A654967
(1732863322.474664) vcan0 10E##06AE1CF73005A654967
(1732863322.475576) vcan0 244##000000001EC5A654967
(1732863322.475631) vcan0 200##000000001EC5A654967
(1732863322.477193) vcan0 3D0##016CFF7A7005A654967
(1732863322.479472) vcan0 000##000000000005A654967
(1732863322.482204) vcan0 000##000000000005A654967
(1732863322.484495) vcan0 000##000000000005A654967
(1732863322.487106) vcan0 14C##0130FB403005A654967
(1732863322.487780) vcan0 244##000000001855A654967
(1732863322.487826) vcan0 200##000000001855A654967
(1732863322.491226) vcan0 000##000000000005A654967
(1732863322.493209) vcan0 1BC##01BB051AC005A654967
(1732863322.495563) vcan0 000##000000000005A654967
(1732863322.497453) vcan0 000##000000000005A654967
(1732863322.500266) vcan0 1E3##013B764E1005A654967
(1732863322.503627) vcan0 244##000000001AA5A654967
(1732863322.503837) vcan0 200##000000001AA5A654967
(1732863322.503971) vcan0 3CA##024BC0389005A654967
(1732863322.508027) vcan0 356##04247B675005A654967
(1732863322.510104) vcan0 2DD##04B46F583005A654967
(1732863322.513773) vcan0 2BE##035817E56005A654967
(1732863322.515889) vcan0 244##000000001D35A654967
(1732863322.515990) vcan0 200##000000001D35A654967
(1732863322.517069) vcan0 110##051BEE7CD005A654967
(1732863322.520924) vcan0 1C9##046894E00005A654967
(1732863322.524155) vcan0 374##05D30AA26005A654967
(1732863322.526006) vcan0 000##000000000005A654967
(1732863322.527612) vcan0 244##000000001D95A654967
(1732863322.527715) vcan0 200##000000001D95A654967
(1732863322.528292) vcan0 170##0443BD08C005A654967
(1732863322.531209) vcan0 270##071696EBC005A654967
(1732863322.535026) vcan0 000##000000000005A654967
(1732863322.537381) vcan0 000##000000000005A654967
(1732863322.539198) vcan0 244##0000000019A5A654967
(1732863322.539278) vcan0 200##0000000019A5A654967
(1732863322.541349) vcan0 10A##0274E09A9005A654967
(1732863322.543647) vcan0 3AE##06D9EF5BE005A654967
(1732863322.546425) vcan0 22C##03A77DD91005A654967
(1732863322.548669) vcan0 29F##0367DDDF6005A654967
(1732863322.549654) vcan0 244##0000000017E5A654967
(1732863322.549768) vcan0 200##0000000017E5A654967
(1732863322.553232) vcan0 11B##045F075F5005A654967
(1732863322.555951) vcan0 000##000000000005A654967
(1732863322.558012) vcan0 378##01ED78B2A005A654967
(1732863322.559891) vcan0 24F##06548E488005A654967
(1732863322.560990) vcan0 244##000000001095A654967
(1732863322.561243) vcan0 200##000000001095A654967
(1732863322.562984) vcan0 2F7##05E3BE418005A654967
(1732863322.565135) vcan0 168##05925526B005A654967
(1732863322.567740) vcan0 23E##0291009C9005A654967
(1732863322.570382) vcan0 290##019A627AE005A654967
(1732863322.572676) vcan0 244##000000001DF5A654967
(1732863322.572780) vcan0 200##000000001DF5A654967
(1732863322.573374) vcan0 255##028323D00005A654967
(1732863322.575897) vcan0 26B##044975EE4005A654967
(1732863322.580759) vcan0 000##000000000005A654967
(1732863322.585654) vcan0 130##0EC04D680005A654967
(1732863322.589808) vcan0 244##000000001AF5A654967
(1732863322.589919) vcan0 200##000000001AF5A654967
(1732863322.589959) vcan0 113##036C52CDF005A654967
(1732863322.593020) vcan0 326##0E4A8F3F0005A654967
(1732863322.595490) vcan0 270##07DB59DC5005A654967
(1732863322.597978) vcan0 136##05070EB8B005A654967
(1732863322.600909) vcan0 3BA##03D8E01A1005A654967
(1732863322.601061) vcan0 244##0000000013A5A654967
(1732863322.601163) vcan0 200##0000000013A5A654967
(1732863322.606803) vcan0 384##054DD7F32005A654967
(1732863322.608949) vcan0 000##000000000005A654967
(1732863322.612278) vcan0 3BB##04CFBFFC2005A654967
(1732863322.614364) vcan0 244##0000000012B5A654967
(1732863322.614553) vcan0 200##0000000012B5A654967
(1732863322.616018) vcan0 1EB##023D7DD23005A654967
(1732863322.620417) vcan0 22E##030490C2A005A654967
(1732863322.624444) vcan0 2EC##06864E4BE005A654967
(1732863322.626021) vcan0 244##000000001A35A654967
(1732863322.626209) vcan0 200##000000001A35A654967
(1732863322.627202) vcan0 3D8##03A33C141005A654967
(1732863322.629756) vcan0 1BF##054FECA43005A654967
(1732863322.631827) vcan0 000##000000000005A654967
(1732863322.636185) vcan0 1AD##0275F1956005A654967
(1732863322.636880) vcan0 244##0000000014E5A654967
(1732863322.637118) vcan0 200##0000000014E5A654967
(1732863322.641303) vcan0 385##040CD3AC0005A654967
(1732863322.643475) vcan0 235##02957CEAB005A654967
(1732863322.646165) vcan0 000##000000000005A654967
(1732863322.648084) vcan0 244##0000000015A5A654967
(1732863322.648179) vcan0 200##0000000015A5A654967
(1732863322.648775) vcan0 336##01FD23C31005A654967
(1732863322.651307) vcan0 000##000000000005A654967
(1732863322.655779) vcan0 3B5##03F90FF5C005A654967
(1732863322.658080) vcan0 1A3##0F3AD9880005A654967
(1732863322.659018) vcan0 244##000000001F95A654967
(1732863322.659151) vcan0 200##000000001F95A654967
(1732863322.660902) vcan0 317##07ACFC565005A654967
(1732863322.663039) vcan0 374##01D8F403B005A654967
(1732863322.665179) vcan0 393##03460639E005A654967
(1732863322.670285) vcan0 327##0955FC520005A654967
(1732863322.674733) vcan0 376##024AAE869005A654967
(1732863322.675146) vcan0 244##000000001425A654967
(1732863322.675264) vcan0 200##000000001425A654967
(1732863322.676824) vcan0 211##0534E61BA005A654967
(1732863322.679884) vcan0 000##000000000005A654967
(1732863322.682329) vcan0 367##04AD521E5005A654967
(1732863322.686739) vcan0 244##000000001CC5A654967
(1732863322.686847) vcan0 200##000000001CC5A654967
(1732863322.690863) vcan0 3B3##04B5A9A28005A654967
(1732863322.693014) vcan0 000##000000000005A654967
(1732863322.696266) vcan0 000##000000000005A654967
(1732863322.698609) vcan0 2CE##02E529B5E005A654967
(1732863322.702803) vcan0 244##000000001E65A654967
(1732863322.702958) vcan0 200##000000001E65A654967
(1732863322.703374) vcan0 000##000000000005A654967
(1732863322.707698) vcan0 000##000000000005A654967
(1732863322.710254) vcan0 254##02D9499D8005A654967
(1732863322.713179) vcan0 230##0597F056C005A654967
(1732863322.713931) vcan0 244##0000000013E5A654967
(1732863322.714099) vcan0 200##0000000013E5A654967
(1732863322.715869) vcan0 33E##0241965A4005A654967
(1732863322.718093) vcan0 1A7##0495576D1005A654967
(1732863322.724089) vcan0 142##061856CCE005A654967
(1732863322.725955) vcan0 244##000000001825A654967
(1732863322.726078) vcan0 200##000000001825A654967
(1732863322.726160) vcan0 323##056C960B9005A654967
(1732863322.728375) vcan0 137##06C989134005A654967
(1732863322.730433) vcan0 273##029A65DC6005A654967
(1732863322.732522) vcan0 162##034A521DA005A654967
(1732863322.736819) vcan0 244##0000000012F5A654967
(1732863322.736943) vcan0 200##0000000012F5A654967
(1732863322.739770) vcan0 3AC##09DBD5150005A654967
(1732863322.742711) vcan0 000##000000000005A654967
(1732863322.744669) vcan0 373##01A72202A005A654967
(1732863322.746712) vcan0 000##000000000005A654967
(1732863322.748351) vcan0 244##000000001A85A654967
(1732863322.748435) vcan0 200##000000001A85A654967
(1732863322.750250) vcan0 388##02DFC957A005A654967
(1732863322.754429) vcan0 139##048858FBE005A654967
(1732863322.758931) vcan0 244##000000001985A654967
(1732863322.758961) vcan0 222##04DD2F38E005A654967
(1732863322.759098) vcan0 200##000000001985A654967
(1732863322.762532) vcan0 196##05EC5D853005A654967
(1732863322.764610) vcan0 000##000000000005A654967
(1732863322.768403) vcan0 1F7##01E603EA1005A654967
(1732863322.769588) vcan0 244##000000001D65A654967
(1732863322.769651) vcan0 200##000000001D65A654967
(1732863322.771599) vcan0 3A6##05B59073A005A654967
(1732863322.775232) vcan0 36F##03A7F72C9005A654967
(1732863322.776978) vcan0 3F3##061600A70005A654967
(1732863322.779237) vcan0 3FE##05C3A2A66005A654967
(1732863322.781324) vcan0 26D##04BD5F160005A654967
(1732863322.785834) vcan0 244##000000001085A654967
(1732863322.786005) vcan0 000##000000000005A654967
(1732863322.786236) vcan0 200##000000001085A654967
(1732863322.790905) vcan0 276##010DF0843005A654967
(1732863322.792670) vcan0 1E0##06E0351E9005A654967
(1732863322.795305) vcan0 000##000000000005A654967
(1732863322.797247) vcan0 000##000000000005A654967
(1732863322.797479) vcan0 244##000000001085A654967
(1732863322.798969) vcan0 200##000000001085A654967
(1732863322.803867) vcan0 3E3##029E35164005A654967
(1732863322.807721) vcan0 3B4##0443CC605005A654967
(1732863322.809895) vcan0 000##000000000005A654967
(1732863322.810156) vcan0 244##000000001815A654967
(1732863322.810249) vcan0 200##000000001815A654967
(1732863322.812239) vcan0 258##01F083DEC005A654967
(1732863322.814526) vcan0 21F##025E1DC50005A654967
(1732863322.816258) vcan0 000##000000000005A654967
(1732863322.821015) vcan0 38A##03D4E27FD005A654967
(1732863322.821911) vcan0 244##0000000018D5A654967
(1732863322.822109) vcan0 200##0000000018D5A654967
(1732863322.825771) vcan0 000##000000000005A654967
(1732863322.827968) vcan0 000##000000000005A654967
(1732863322.829925) vcan0 1E3##073208711005A654967
(1732863322.831848) vcan0 1ED##02076C223005A654967
(1732863322.834269) vcan0 12B##03C275463005A654967
(1732863322.837870) vcan0 244##000000001625A654967
(1732863322.838031) vcan0 200##000000001625A654967
(1732863322.838433) vcan0 266##059052B0B005A654967
(1732863322.841260) vcan0 24C##05CA6F2D4005A654967
(1732863322.843609) vcan0 174##06602A677005A654967
(1732863322.846129) vcan0 2CA##035FA8D57005A654967
(1732863322.848610) vcan0 3DC##0D584A7E0005A654967
(1732863322.852410) vcan0 35C##079C3CCE0005A654967
(1732863322.853979) vcan0 244##000000001265A654967
(1732863322.854045) vcan0 200##000000001265A654967
(1732863322.858121) vcan0 3C8##01D39F1B5005A654967
(1732863322.859958) vcan0 2BB##011420DE7005A654967
(1732863322.862463) vcan0 205##0640CF748005A654967
(1732863322.865864) vcan0 244##000000001155A654967
(1732863322.866139) vcan0 200##000000001155A654967
(1732863322.871451) vcan0 3AC##04456B18F005A654967
(1732863322.874630) vcan0 345##03DD1CC3B005A654967
(1732863322.876661) vcan0 10C##064BF47E9005A654967
(1732863322.877651) vcan0 244##000000001045A654967
(1732863322.877748) vcan0 200##000000001045A654967
(1732863322.879422) vcan0 000##000000000005A654967
(1732863322.881696) vcan0 2FB##03EE6F6B4005A654967
(1732863322.886337) vcan0 112##06F383426005A654967
(1732863322.888625) vcan0 317##05917FF79005A654967
(1732863322.888871) vcan0 244##000000001EC5A654967
(1732863322.889171) vcan0 200##000000001EC5A654967
(1732863322.893064) vcan0 331##02538F164005A654967
(1732863322.897228) vcan0 24D##078BEF0A5005A654967
(1732863322.899416) vcan0 3DB##067BC9170005A654967
(1732863322.899773) vcan0 244##000000001045A654967
(1732863322.900099) vcan0 200##000000001045A654967
(1732863322.902616) vcan0 1FC##01B218FB7005A654967
(1732863322.905028) vcan0 395##028F0D159005A654967
(1732863322.909176) vcan0 000##000000000005A654967
(1732863322.911553) vcan0 30E##049624741005A654967
(1732863322.912463) vcan0 244##000000001F95A654967
(1732863322.912566) vcan0 200##000000001F95A654967
(1732863322.914211) vcan0 145##094691130005A654967
(1732863322.916033) vcan0 289##02F6E3CF1005A654967
(1732863322.917693) vcan0 188##000000000005A654967
(1732863322.918143) vcan0 2A2##04ECA5DCF005A654967
(1732863322.920169) vcan0 12C##045513FAE005A654967
(1732863322.923375) vcan0 1B8##045B171F4005A654967
(1732863322.924224) vcan0 244##000000001225A654967
(1732863322.924295) vcan0 200##000000001225A654967
(1732863322.926757) vcan0 29D##0B6974B30005A654967
(1732863322.928693) vcan0 000##000000000005A654967
(1732863322.931251) vcan0 000##000000000005A654967
(1732863322.933345) vcan0 328##042DF080B005A654967
(1732863322.935469) vcan0 244##0000000011E5A654967
(1732863322.935534) vcan0 200##0000000011E5A654967
(1732863322.936196) vcan0 124##0335D9750005A654967
(1732863322.938522) vcan0 000##000000000005A654967
(1732863322.944344) vcan0 28C##06A5776AD005A654967
(1732863322.946053) vcan0 244##0000000011E5A654967
(1732863322.947229) vcan0 200##0000000011E5A654967
(1732863322.947744) vcan0 000##000000000005A654967
(1732863322.954675) vcan0 000##000000000005A654967
(1732863322.957804) vcan0 244##0000000011E5A654967
(1732863322.957877) vcan0 200##0000000011E5A654967
(1732863322.958052) vcan0 17F##059730B14005A654967
(1732863322.959982) vcan0 000##000000000005A654967
(1732863322.962709) vcan0 000##000000000005A654967
(1732863322.965036) vcan0 3B5##03056DEC9005A654967
(1732863322.966975) vcan0 000##000000000005A654967
(1732863322.968950) vcan0 277##06720228F005A654967
(1732863322.971874) vcan0 2D6##04244D114005A654967
(1732863322.974058) vcan0 244##000000001EA5A654967
(1732863322.974129) vcan0 200##000000001EA5A654967
(1732863322.975842) vcan0 342##03D83DB7E005A654967
(1732863322.978631) vcan0 000##000000000005A654967
(1732863322.981185) vcan0 33E##041A9FEC0005A654967
(1732863322.983183) vcan0 000##000000000005A654967
(1732863322.984976) vcan0 161##06BA840D7005A654967
(1732863322.985559) vcan0 244##000000001765A654967
(1732863322.985708) vcan0 200##000000001765A654967
(1732863322.989105) vcan0 162##011021BEE005A654967
(1732863322.994129) vcan0 384##05D623E19005A654967
(1732863322.996800) vcan0 244##000000001665A654967
(1732863322.997410) vcan0 200##000000001665A654967
(1732863322.997658) vcan0 20F##06947FF8A005A654967
(1732863323.000288) vcan0 356##01FEF838E005B654967
(1732863323.002979) vcan0 29E##02B9B7D40005B654967
(1732863323.008352) vcan0 252##02574A6C5005B654967
(1732863323.009199) vcan0 244##000000001295B654967
(1732863323.009348) vcan0 200##000000001295B654967
(1732863323.012797) vcan0 2DB##07C753608005B654967
(1732863323.015467) vcan0 18E##01B1C53B2005B654967
(1732863323.021003) vcan0 244##000000001605B654967
(1732863323.021067) vcan0 200##000000001605B654967
(1732863323.021413) vcan0 2EA##04B73A405005B654967
(1732863323.024771) vcan0 241##0289AA9C0005B654967
(1732863323.026505) vcan0 119##074C60D83005B654967
(1732863323.029281) vcan0 13E##0445C2DDD005B654967
(1732863323.031943) vcan0 244##0000000015C5B654967
(1732863323.031988) vcan0 19F##02349147D005B654967
(1732863323.032010) vcan0 200##0000000015C5B654967
(1732863323.034528) vcan0 1C9##011FB95C6005B654967
(1732863323.036911) vcan0 000##000000000005B654967
(1732863323.039208) vcan0 29E##01778BA41005B654967
(1732863323.041261) vcan0 318##053A38E22005B654967
(1732863323.043585) vcan0 000##000000000005B654967
(1732863323.045689) vcan0 1AD##04037CFB0005B654967
(1732863323.047475) vcan0 000##000000000005B654967
(1732863323.047967) vcan0 244##0000000013E5B654967
(1732863323.048035) vcan0 200##0000000013E5B654967
(1732863323.050906) vcan0 384##025BBF709005B654967
(1732863323.055948) vcan0 311##02A775E60005B654967
(1732863323.057606) vcan0 111##07AE6C49F005B654967
(1732863323.058723) vcan0 244##0000000013F5B654967
(1732863323.058872) vcan0 200##0000000013F5B654967
(1732863323.060222) vcan0 212##011E063FB005B654967
(1732863323.062927) vcan0 000##000000000005B654967
(1732863323.065027) vcan0 1BB##05412DDBE005B654967
(1732863323.067109) vcan0 1D6##0209992F9005B654967
(1732863323.069639) vcan0 244##000000001C55B654967
(1732863323.069824) vcan0 200##000000001C55B654967
(1732863323.070364) vcan0 39B##01E878376005B654967
(1732863323.073635) vcan0 376##060E5D964005B654967
(1732863323.075684) vcan0 13C##04935F056005B654967
(1732863323.078209) vcan0 000##000000000005B654967
(1732863323.082115) vcan0 244##000000001C25B654967
(1732863323.082352) vcan0 200##000000001C25B654967
(1732863323.083476) vcan0 297##0117683A7005B654967
(1732863323.086352) vcan0 1FD##05589A2F2005B654967
(1732863323.090598) vcan0 000##000000000005B654967
(1732863323.093159) vcan0 2A2##050087186005B654967
(1732863323.093417) vcan0 244##0000000019A5B654967
(1732863323.093771) vcan0 200##0000000019A5B654967
(1732863323.096765) vcan0 3F5##058B2FA27005B654967
(1732863323.098766) vcan0 000##000000000005B654967
(1732863323.100481) vcan0 000##000000000005B654967
(1732863323.102496) vcan0 3A6##048BE0A99005B654967
(1732863323.104247) vcan0 000##000000000005B654967
(1732863323.104578) vcan0 244##000000001625B654967
(1732863323.104710) vcan0 200##000000001625B654967
(1732863323.106518) vcan0 356##078CBEE09005B654967
(1732863323.108401) vcan0 000##000000000005B654967
(1732863323.110618) vcan0 1A5##06BABEC38005B654967
(1732863323.112591) vcan0 1C6##07220D309005B654967
(1732863323.114479) vcan0 175##01203321C005B654967
(1732863323.115597) vcan0 244##0000000010D5B654967
(1732863323.115647) vcan0 200##0000000010D5B654967
(1732863323.117322) vcan0 398##04A55F54F005B654967
(1732863323.120197) vcan0 000##000000000005B654967
(1732863323.123369) vcan0 34C##0483B7FA5005B654967
(1732863323.125078) vcan0 000##000000000005B654967
(1732863323.126911) vcan0 244##0000000015D5B654967
(1732863323.126994) vcan0 200##0000000015D5B654967
(1732863323.127406) vcan0 248##02514A195005B654967
(1732863323.130984) vcan0 2EC##036AFEC6F005B654967
(1732863323.132773) vcan0 224##02CAB05F2005B654967
(1732863323.134983) vcan0 000##000000000005B654967
(1732863323.136927) vcan0 198##02984F8F0005B654967
(1732863323.139713) vcan0 15F##02FC2BDE3005B654967
(1732863323.141954) vcan0 27B##040F5A0B5005B654967
(1732863323.142307) vcan0 244##000000001165B654967
(1732863323.142482) vcan0 200##000000001165B654967
(1732863323.144055) vcan0 3ED##0604AEB3D005B654967
(1732863323.146179) vcan0 305##039C9A592005B654967
(1732863323.149627) vcan0 376##0EAD7CCB0005B654967
(1732863323.151629) vcan0 000##000000000005B654967
(1732863323.153345) vcan0 2E7##04EB86C34005B654967
(1732863323.153565) vcan0 244##000000001805B654967
(1732863323.153763) vcan0 200##000000001805B654967
(1732863323.156407) vcan0 23A##013628B9A005B654967
(1732863323.158355) vcan0 374##07E9C4587005B654967
(1732863323.160180) vcan0 340##058091383005B654967
(1732863323.162114) vcan0 000##000000000005B654967
(1732863323.164033) vcan0 119##052A5E769005B654967
(1732863323.165004) vcan0 244##000000001025B654967
(1732863323.165105) vcan0 200##000000001025B654967
(1732863323.167380) vcan0 1F7##017F6BF3D005B654967
(1732863323.169390) vcan0 15C##02A252EED005B654967
(1732863323.171850) vcan0 302##0A5A9AF40005B654967
(1732863323.175281) vcan0 27C##02769F861005B654967
(1732863323.177415) vcan0 000##000000000005B654967
(1732863323.179226) vcan0 117##062AC04C5005B654967
(1732863323.180920) vcan0 000##000000000005B654967
(1732863323.181077) vcan0 244##000000001BB5B654967
(1732863323.181120) vcan0 200##000000001BB5B654967
(1732863323.184088) vcan0 257##06C25C3AA005B654967
(1732863323.186935) vcan0 000##000000000005B654967
(1732863323.188791) vcan0 000##000000000005B654967
(1732863323.191490) vcan0 326##06C772D00005B654967
(1732863323.192993) vcan0 244##0000000011C5B654967
(1732863323.193048) vcan0 200##0000000011C5B654967
(1732863323.193746) vcan0 368##01A15729A005B654967
(1732863323.196884) vcan0 000##000000000005B654967
(1732863323.198624) vcan0 21E##0ED67CD40005B654967
(1732863323.200207) vcan0 000##000000000005B654967
(1732863323.202459) vcan0 000##000000000005B654967
(1732863323.206878) vcan0 244##0000000012C5B654967
(1732863323.207153) vcan0 200##0000000012C5B654967
(1732863323.208698) vcan0 274##060CD519A005B654967
(1732863323.210546) vcan0 114##051F85976005B654967
(1732863323.212367) vcan0 000##000000000005B654967
(1732863323.215054) vcan0 1D8##025454566005B654967
(1732863323.217797) vcan0 244##0000000013A5B654967
(1732863323.217912) vcan0 200##0000000013A5B654967
(1732863323.219724) vcan0 000##000000000005B654967
(1732863323.222269) vcan0 22B##02D7A18BC005B654967
(1732863323.224368) vcan0 30B##02466F482005B654967
(1732863323.226321) vcan0 000##000000000005B654967
(1732863323.228503) vcan0 375##06DEB7CFC005B654967
(1732863323.228974) vcan0 244##000000001DF5B654967
(1732863323.229071) vcan0 200##000000001DF5B654967
(1732863323.230869) vcan0 3C0##03DFA69B0005B654967
(1732863323.233047) vcan0 3CC##01B8D9B28005B654967
(1732863323.238152) vcan0 136##07A16A823005B654967
(1732863323.239661) vcan0 244##0000000015D5B654967
(1732863323.240119) vcan0 200##0000000015D5B654967
(1732863323.241214) vcan0 1D1##010139F54005B654967
(1732863323.245487) vcan0 000##000000000005B654967
(1732863323.247861) vcan0 28B##06A698935005B654967
(1732863323.250791) vcan0 000##000000000005B654967
(1732863323.251446) vcan0 244##000000001DB5B654967
(1732863323.251600) vcan0 200##000000001DB5B654967
(1732863323.254560) vcan0 2CF##0593F13D0005B654967
(1732863323.257245) vcan0 276##0365EC75E005B654967
(1732863323.259466) vcan0 000##000000000005B654967
(1732863323.262019) vcan0 000##000000000005B654967
(1732863323.262272) vcan0 244##000000001685B654967
(1732863323.262492) vcan0 200##000000001685B654967
(1732863323.264879) vcan0 33D##0639556F0005B654967
(1732863323.267162) vcan0 211##043A12A48005B654967
(1732863323.269796) vcan0 372##027603E78005B654967
(1732863323.272672) vcan0 23A##074C362E7005B654967
(1732863323.273024) vcan0 244##000000001FF5B654967
(1732863323.273072) vcan0 200##000000001FF5B654967
(1732863323.275816) vcan0 374##03B1D49FA005B654967
(1732863323.277499) vcan0 183##09FEAB400005B654967
(1732863323.279748) vcan0 122##0169822B9005B654967
(1732863323.282182) vcan0 363##03ED716F3005B654967
(1732863323.283835) vcan0 244##000000001F05B654967
(1732863323.287278) vcan0 200##000000001F05B654967
(1732863323.291475) vcan0 20D##0D02785A0005B654967
(1732863323.293546) vcan0 000##000000000005B654967
(1732863323.295901) vcan0 190##01227211E005B654967
(1732863323.298073) vcan0 197##042A2DC5F005B654967
(1732863323.298358) vcan0 244##000000001A75B654967
(1732863323.298400) vcan0 200##000000001A75B654967
(1732863323.300374) vcan0 25B##04F9A00D0005B654967
(1732863323.303955) vcan0 3BD##06AB62F29005B654967
(1732863323.306422) vcan0 000##000000000005B654967
(1732863323.312555) vcan0 244##000000001395B654967
(1732863323.312563) vcan0 200##000000001395B654967
(1732863323.315340) vcan0 000##000000000005B654967
(1732863323.318102) vcan0 372##058BCDA90005B654967
(1732863323.320906) vcan0 1E0##0403752E4005B654967
(1732863323.323515) vcan0 108##05EA7F01A005B654967
(1732863323.323834) vcan0 244##0000000012B5B654967
(1732863323.324036) vcan0 200##0000000012B5B654967
(1732863323.326270) vcan0 1CC##01568D47C005B654967
(1732863323.328248) vcan0 214##02D9DBF4F005B654967
(1732863323.330536) vcan0 3BC##070701F37005B654967
(1732863323.333351) vcan0 208##0237CD31F005B654967
(1732863323.335455) vcan0 22A##06AE1A415005B654967
(1732863323.338379) vcan0 37A##05C84131F005B654967
(1732863323.339779) vcan0 244##000000001E15B654967
(1732863323.339834) vcan0 200##000000001E15B654967
(1732863323.340762) vcan0 000##000000000005B654967
(1732863323.343086) vcan0 000##000000000005B654967
(1732863323.345538) vcan0 169##066646990005B654967
(1732863323.347338) vcan0 252##0638FCD27005B654967
(1732863323.349222) vcan0 1C2##0192C72AD005B654967
(1732863323.350814) vcan0 1A9##03C18EE41005B654967
(1732863323.351041) vcan0 244##000000001C05B654967
(1732863323.351174) vcan0 200##000000001C05B654967
(1732863323.353671) vcan0 246##07070851B005B654967
(1732863323.355533) vcan0 000##000000000005B654967
(1732863323.359146) vcan0 3FF##014F2E1DA005B654967
(1732863323.361887) vcan0 000##000000000005B654967
(1732863323.363737) vcan0 244##0000000013D5B654967
(1732863323.363788) vcan0 200##0000000013D5B654967
(1732863323.365592) vcan0 257##06A27DE55005B654967
(1732863323.369537) vcan0 11A##049C33613005B654967
(1732863323.371620) vcan0 18C##057762F22005B654967
(1732863323.374112) vcan0 133##09DF33B70005B654967
(1732863323.375219) vcan0 244##000000001E35B654967
(1732863323.375307) vcan0 200##000000001E35B654967
(1732863323.377118) vcan0 337##01DBF54AD005B654967
(1732863323.379124) vcan0 2D6##0533513E4005B654967
(1732863323.381595) vcan0 1B7##0550E7B14005B654967
(1732863323.383414) vcan0 229##03038CB20005B654967
(1732863323.385564) vcan0 1AD##052E6187B005B654967
(1732863323.387271) vcan0 000##000000000005B654967
(1732863323.389321) vcan0 328##04BFE15F0005B654967
(1732863323.390859) vcan0 244##000000001065B654967
(1732863323.390920) vcan0 200##000000001065B654967
(1732863323.391053) vcan0 1B1##0FB5896E0005B654967
(1732863323.393058) vcan0 30B##01D7FEE83005B654967
(1732863323.395156) vcan0 195##06D16730B005B654967
(1732863323.397264) vcan0 000##000000000005B654967
(1732863323.399324) vcan0 000##000000000005B654967
(1732863323.401973) vcan0 000##000000000005B654967
(1732863323.405870) vcan0 000##000000000005B654967
(1732863323.406580) vcan0 244##0000000013A5B654967
(1732863323.406967) vcan0 200##0000000013A5B654967
(1732863323.408358) vcan0 113##013D1C5FB005B654967
(1732863323.410037) vcan0 16F##07FC7504B005B654967
(1732863323.412217) vcan0 2A8##06D538450005B654967
(1732863323.414549) vcan0 000##000000000005B654967
(1732863323.416573) vcan0 359##0638D2A58005B654967
(1732863323.417977) vcan0 244##000000001DC5B654967
(1732863323.418356) vcan0 200##000000001DC5B654967
(1732863323.419371) vcan0 37F##037587506005B654967
(1732863323.421493) vcan0 2D3##03B3D1FC7005B654967
(1732863323.424700) vcan0 000##000000000005B654967
(1732863323.424964) vcan0 188##000000000005B654967
(1732863323.427064) vcan0 1B7##0C93D2270005B654967
(1732863323.429815) vcan0 36A##043A9D0C3005B654967
(1732863323.432034) vcan0 000##000000000005B654967
(1732863323.432369) vcan0 244##000000001E15B654967
(1732863323.432562) vcan0 200##000000001E15B654967
(1732863323.434736) vcan0 3CE##05C869107005B654967
(1732863323.436832) vcan0 2D5##037944A40005B654967
(1732863323.438754) vcan0 3BC##041793701005B654967
(1732863323.440822) vcan0 295##05FE6D484005B654967
(1732863323.442961) vcan0 000##000000000005B654967
(1732863323.443551) vcan0 244##000000001965B654967
(1732863323.443626) vcan0 200##000000001965B654967
(1732863323.445115) vcan0 27F##0787DE628005B654967
(1732863323.447318) vcan0 3F4##02549B527005B654967
(1732863323.449255) vcan0 26D##079A5C423005B654967
(1732863323.451287) vcan0 186##05B36D1C7005B654967
(1732863323.453653) vcan0 27C##043F9F905005B654967
(1732863323.455123) vcan0 244##000000001BD5B654967
(1732863323.455130) vcan0 200##000000001BD5B654967
(1732863323.455883) vcan0 2CD##013A6314F005B654967
(1732863323.458342) vcan0 000##000000000005B654967
(1732863323.460345) vcan0 34B##06724E840005B654967
(1732863323.462713) vcan0 16A##0686756B6005B654967
(1732863323.464780) vcan0 347##04D208614005B654967
(1732863323.466490) vcan0 244##000000001BF5B654967
(1732863323.467145) vcan0 3B5##07ADC6315005B654967
(1732863323.467264) vcan0 200##000000001BF5B654967
(1732863323.469778) vcan0 31C##02191628B005B654967
(1732863323.471696) vcan0 3B9##062FC2ED8005B654967
(1732863323.473641) vcan0 18C##067C83A4F005B654967
(1732863323.475813) vcan0 35C##03B168E45005B654967
(1732863323.477906) vcan0 1F8##0369B9DDB005B654967
(1732863323.478325) vcan0 244##0000000014C5B654967
(1732863323.478598) vcan0 200##0000000014C5B654967
(1732863323.480937) vcan0 000##000000000005B654967
(1732863323.483108) vcan0 302##032E792DA005B654967
(1732863323.485441) vcan0 20F##0786AC488005B654967
(1732863323.488981) vcan0 244##000000001BD5B654967
(1732863323.489135) vcan0 200##000000001BD5B654967
(1732863323.489458) vcan0 000##000000000005B654967
(1732863323.492268) vcan0 18D##020ADAB6F005B654967
(1732863323.494447) vcan0 1DB##03B9BD65A005B654967
(1732863323.496541) vcan0 2B2##055FE8D26005B654967
(1732863323.500301) vcan0 244##000000001E95B654967
(1732863323.500477) vcan0 200##000000001E95B654967
(1732863323.500555) vcan0 000##000000000005B654967
(1732863323.503271) vcan0 3DC##0C2A44250005B654967
(1732863323.505077) vcan0 231##05A78CF92005B654967
(1732863323.507173) vcan0 33A##050FB014D005B654967
(1732863323.509148) vcan0 21D##055C4EF30005B654967
(1732863323.511238) vcan0 000##000000000005B654967
(1732863323.512763) vcan0 244##000000001465B654967
(1732863323.512906) vcan0 200##000000001465B654967
(1732863323.514015) vcan0 142##076DA3381005B654967
(1732863323.516289) vcan0 1EE##07BCED33A005B654967
(1732863323.518854) vcan0 15C##04DBFCE5B005B654967
(1732863323.527993) vcan0 244##000000001705B654967
(1732863323.528441) vcan0 200##000000001705B654967
(1732863323.531377) vcan0 126##095B245E0005B654967
(1732863323.537719) vcan0 135##0601BEB36005B654967
(1732863323.539954) vcan0 000##000000000005B654967
(1732863323.541510) vcan0 244##000000001055B654967
(1732863323.541656) vcan0 200##000000001055B654967
(1732863323.542943) vcan0 3C1##03E2AA674005B654967
(1732863323.546324) vcan0 146##0C1AD59C0005B654967
(1732863323.548509) vcan0 000##000000000005B654967
(1732863323.550773) vcan0 2C3##03BD4A1AC005B654967
(1732863323.552389) vcan0 244##000000001665B654967
(1732863323.552511) vcan0 200##000000001665B654967
(1732863323.554260) vcan0 000##000000000005B654967
(1732863323.556343) vcan0 1D1##068215E47005B654967
(1732863323.558288) vcan0 231##04F058D0B005B654967
(1732863323.562096) vcan0 394##07702484E005B654967
(1732863323.564236) vcan0 3FE##06D138FBA005B654967
(1732863323.565886) vcan0 244##000000001C85B654967
(1732863323.565954) vcan0 200##000000001C85B654967
(1732863323.566943) vcan0 3F7##041866541005B654967
(1732863323.569332) vcan0 33B##070426DE5005B654967
(1732863323.571567) vcan0 000##000000000005B654967
(1732863323.573726) vcan0 000##000000000005B654967
(1732863323.575556) vcan0 000##000000000005B654967
(1732863323.577927) vcan0 000##000000000005B654967
(1732863323.579879) vcan0 34D##03ADBE899005B654967
(1732863323.581553) vcan0 244##0000000013E5B654967
(1732863323.581933) vcan0 200##0000000013E5B654967
(1732863323.582166) vcan0 000##000000000005B654967
(1732863323.584255) vcan0 236##05475C51F005B654967
(1732863323.586667) vcan0 000##000000000005B654967
(1732863323.588606) vcan0 2CB##0244A58A1005B654967
(1732863323.590548) vcan0 398##058494C9C005B654967
(1732863323.592219) vcan0 244##000000001AE5B654967
(1732863323.592283) vcan0 200##000000001AE5B654967
(1732863323.592583) vcan0 2E8##044877DCA005B654967
(1732863323.594634) vcan0 1A7##04588167C005B654967
(1732863323.596485) vcan0 218##07BB0B5A5005B654967
(1732863323.598203) vcan0 236##011A0DA10005B654967
(1732863323.600289) vcan0 2E6##016896972005B654967
(1732863323.602903) vcan0 3F5##07A8C5362005B654967
(1732863323.604131) vcan0 244##0000000011E5B654967
(1732863323.604504) vcan0 200##0000000011E5B654967
(1732863323.605108) vcan0 20A##03FE58436005B654967
(1732863323.607042) vcan0 104##042ABB700005B654967
(1732863323.608998) vcan0 1AC##03797A9DC005B654967
(1732863323.611359) vcan0 000##000000000005B654967
(1732863323.613677) vcan0 275##039DFA12E005B654967
(1732863323.615917) vcan0 244##000000001395B654967
(1732863323.616063) vcan0 200##000000001395B654967
(1732863323.617367) vcan0 18C##0396A50AB005B654967
(1732863323.620587) vcan0 24D##02C5E3E17005B654967
(1732863323.622807) vcan0 1A4##01E9FCD18005B654967
(1732863323.625012) vcan0 2B8##02C09D93D005B654967
(1732863323.627030) vcan0 1B4##05D144DA0005B654967
(1732863323.629207) vcan0 307##01E37F35B005B654967
(1732863323.631302) vcan0 244##000000001A85B654967
(1732863323.631587) vcan0 200##000000001A85B654967
(1732863323.631898) vcan0 000##000000000005B654967
(1732863323.637343) vcan0 101##055380A53005B654967
(1732863323.639487) vcan0 32F##0571FC3E7005B654967
(1732863323.646188) vcan0 244##000000001155B654967
(1732863323.646473) vcan0 200##000000001155B654967
(1732863323.649434) vcan0 3C5##03F9F3F25005B654967
(1732863323.652689) vcan0 349##013AE71CF005B654967
(1732863323.654873) vcan0 35B##03AB0204D005B654967
(1732863323.657033) vcan0 000##000000000005B654967
(1732863323.657484) vcan0 244##000000001BE5B654967
(1732863323.657589) vcan0 200##000000001BE5B654967
(1732863323.659831) vcan0 229##0358A81AD005B654967
(1732863323.662298) vcan0 000##000000000005B654967
(1732863323.664027) vcan0 38C##01E25AD4A005B654967
(1732863323.665778) vcan0 129##03F5201A3005B654967
(1732863323.668819) vcan0 244##000000001C35B654967
(1732863323.671971) vcan0 200##000000001C35B654967
(1732863323.675107) vcan0 2EF##01C5F5642005B654967
(1732863323.677081) vcan0 000##000000000005B654967
(1732863323.679071) vcan0 3F6##06D0EE5FC005B654967
(1732863323.680797) vcan0 333##031806352005B654967
(1732863323.683182) vcan0 244##000000001A25B654967
(1732863323.683263) vcan0 200##000000001A25B654967
(1732863323.684201) vcan0 219##049566C52005B654967
(1732863323.686202) vcan0 000##000000000005B654967
(1732863323.688090) vcan0 382##02288D03A005B654967
(1732863323.690246) vcan0 000##000000000005B654967
(1732863323.692633) vcan0 384##064533A02005B654967
(1732863323.695351) vcan0 244##000000001015B654967
(1732863323.696309) vcan0 200##000000001015B654967
(1732863323.697324) vcan0 202##02EE507D1005B654967
(1732863323.699357) vcan0 2D2##0444A4B09005B654967
(1732863323.702091) vcan0 1FB##07037E47F005B654967
(1732863323.704268) vcan0 109##05E82E9A0005B654967
(1732863323.706222) vcan0 35B##021507895005B654967
(1732863323.706883) vcan0 244##0000000019A5B654967
(1732863323.706923) vcan0 200##0000000019A5B654967
(1732863323.709156) vcan0 3E4##05D619085005B654967
(1732863323.711358) vcan0 238##024ADFAD3005B654967
(1732863323.713972) vcan0 2C7##0709D1294005B654967
(1732863323.717627) vcan0 2FF##0D0956BD0005B654967
(1732863323.719671) vcan0 000##000000000005B654967
(1732863323.721950) vcan0 20F##06D5742AA005B654967
(1732863323.722570) vcan0 244##0000000016A5B654967
(1732863323.722648) vcan0 200##0000000016A5B654967
(1732863323.724087) vcan0 285##09F2C6620005B654967
(1732863323.726385) vcan0 317##03EFC1207005B654967
(1732863323.728454) vcan0 29D##022DF5F4A005B654967
(1732863323.730324) vcan0 000##000000000005B654967
(1732863323.733488) vcan0 14C##04BE41AB0005B654967
(1732863323.742313) vcan0 244##000000001FE5B654967
(1732863323.742323) vcan0 200##000000001FE5B654967
(1732863323.744708) vcan0 1F2##041DFFC1E005B654967
(1732863323.748543) vcan0 1B9##070C257ED005B654967
(1732863323.751416) vcan0 000##000000000005B654967
(1732863323.752874) vcan0 244##000000001F65B654967
(1732863323.753061) vcan0 200##000000001F65B654967
(1732863323.754342) vcan0 287##011B9E7F9005B654967
(1732863323.757158) vcan0 357##01AB8626C005B654967
(1732863323.759787) vcan0 000##000000000005B654967
(1732863323.762485) vcan0 13F##068DC5F45005B654967
(1732863323.764219) vcan0 244##000000001435B654967
(1732863323.764317) vcan0 200##000000001435B654967
(1732863323.764712) vcan0 000##000000000005B654967
(1732863323.767290) vcan0 202##06EC718B5005B654967
(1732863323.769805) vcan0 271##0346F7012005B654967
(1732863323.771985) vcan0 35F##0373B40F6005B654967
(1732863323.774200) vcan0 274##02E58F277005B654967
(1732863323.775134) vcan0 244##0000000017E5B654967
(1732863323.775221) vcan0 200##0000000017E5B654967
(1732863323.776775) vcan0 2FD##06ADDCD11005B654967
(1732863323.779087) vcan0 1C1##07BE507AB005B654967
(1732863323.781037) vcan0 332##0586AEB0D005B654967
(1732863323.784209) vcan0 25B##05B23D125005B654967
(1732863323.785866) vcan0 244##000000001995B654967
(1732863323.785995) vcan0 200##000000001995B654967
(1732863323.786794) vcan0 32B##057F78814005B654967
(1732863323.789306) vcan0 112##04C62C7C8005B654967
(1732863323.791647) vcan0 2D6##04290AF9A005B654967
(1732863323.793857) vcan0 3C1##0365E362D005B654967
(1732863323.795937) vcan0 206##04D38283F005B654967
(1732863323.798076) vcan0 3BD##01CAF6F45005B654967
(1732863323.800338) vcan0 384##067F763E1005B654967
(1732863323.802032) vcan0 244##0000000019A5B654967
(1732863323.802134) vcan0 200##0000000019A5B654967
(1732863323.802769) vcan0 384##02BFA3D87005B654967
(1732863323.804603) vcan0 000##000000000005B654967
(1732863323.810908) vcan0 199##032DCD7F5005B654967
(1732863323.813282) vcan0 2EC##01ECBE40D005B654967
(1732863323.813903) vcan0 244##000000001F65B654967
(1732863323.813964) vcan0 200##000000001F65B654967
(1732863323.815406) vcan0 26C##05A31E5EA005B654967
(1732863323.820521) vcan0 11F##0326E1C2D005B654967
(1732863323.822348) vcan0 195##01537FC51005B654967
(1732863323.824720) vcan0 33A##01DE00FF1005B654967
(1732863323.826709) vcan0 176##02523EE65005B654967
(1732863323.828922) vcan0 000##000000000005B654967
(1732863323.829587) vcan0 244##000000001975B654967
(1732863323.829594) vcan0 200##000000001975B654967
(1732863323.833394) vcan0 22E##06C5A3ADC005B654967
(1732863323.838546) vcan0 223##04FA365EF005B654967
(1732863323.840878) vcan0 109##05C1BB829005B654967
(1732863323.843614) vcan0 244##0000000014C5B654967
(1732863323.843703) vcan0 200##0000000014C5B654967
(1732863323.845949) vcan0 22F##07994B4C6005B654967
(1732863323.849772) vcan0 36E##052F015B3005B654967
(1732863323.852108) vcan0 000##000000000005B654967
(1732863323.854045) vcan0 33A##0384A953D005B654967
(1732863323.854917) vcan0 244##000000001CF5B654967
(1732863323.855013) vcan0 200##000000001CF5B654967
(1732863323.856935) vcan0 000##000000000005B654967
(1732863323.858986) vcan0 133##036F2CBD5005B654967
(1732863323.860924) vcan0 000##000000000005B654967
(1732863323.863245) vcan0 1BF##07C996000005B654967
(1732863323.865615) vcan0 3CD##0673B9F55005B654967
(1732863323.866254) vcan0 244##000000001F25B654967
(1732863323.866328) vcan0 200##000000001F25B654967
(1732863323.870253) vcan0 251##09A45B070005B654967
(1732863323.872515) vcan0 346##0D5D5FC80005B654967
(1732863323.874720) vcan0 16D##07AF3474B005B654967
(1732863323.876502) vcan0 251##0204EFF9B005B654967
(1732863323.877664) vcan0 244##000000001355B654967
(1732863323.877764) vcan0 200##000000001355B654967
(1732863323.878532) vcan0 227##04871FC74005B654967
(1732863323.882633) vcan0 18A##0A05F3310005B654967
(1732863323.884846) vcan0 000##000000000005B654967
(1732863323.887095) vcan0 3F7##01D58DC0B005B654967
(1732863323.888602) vcan0 244##000000001285B654967
(1732863323.888713) vcan0 200##000000001285B654967
(1732863323.889747) vcan0 16D##06526C09F005B654967
(1732863323.892458) vcan0 2FE##05EA85CA7005B654967
(1732863323.894391) vcan0 1DC##01689FBE7005B654967
(1732863323.896294) vcan0 17B##0898C30F0005B654967
(1732863323.898186) vcan0 3BD##03C1C425C005B654967
(1732863323.899641) vcan0 244##000000001785B654967
(1732863323.899771) vcan0 200##000000001785B654967
(1732863323.902770) vcan0 2AF##05EA1797C005B654967
(1732863323.905502) vcan0 000##000000000005B654967
(1732863323.907152) vcan0 000##000000000005B654967
(1732863323.908845) vcan0 183##04AF8C817005B654967
(1732863323.910151) vcan0 244##000000001185B654967
(1732863323.910255) vcan0 200##000000001185B654967
(1732863323.910602) vcan0 275##0C2DF2F00005B654967
(1732863323.913895) vcan0 363##037E420C6005B654967
(1732863323.916150) vcan0 28B##02D39918A005B654967
(1732863323.918495) vcan0 13A##01C6F5816005B654967
(1732863323.920593) vcan0 000##000000000005B654967
(1732863323.921220) vcan0 244##000000001B55B654967
(1732863323.921236) vcan0 200##000000001B55B654967
(1732863323.924890) vcan0 3CF##03ADA2CB3005B654967
(1732863323.926722) vcan0 188##000000000005B654967
(1732863323.926927) vcan0 1E3##08FB553C0005B654967
(1732863323.928980) vcan0 152##05CE70E10005B654967
(1732863323.931398) vcan0 1E4##03D72432E005B654967
(1732863323.932172) vcan0 244##0000000019A5B654967
(1732863323.932435) vcan0 200##0000000019A5B654967
(1732863323.936434) vcan0 000##000000000005B654967
(1732863323.938828) vcan0 23E##069D53486005B654967
(1732863323.940965) vcan0 1BB##01B0100ED005B654967
(1732863323.942960) vcan0 202##025A22A17005B654967
(1732863323.943971) vcan0 244##0000000019A5B654967
(1732863323.944052) vcan0 200##0000000019A5B654967
(1732863323.945466) vcan0 369##0E53C6D40005B654967
(1732863323.947685) vcan0 000##000000000005B654967
(1732863323.949363) vcan0 2EB##074CE5F3A005B654967
(1732863323.951271) vcan0 3DD##01F389E4E005B654967
(1732863323.953119) vcan0 000##000000000005B654967
(1732863323.955114) vcan0 3D9##02D089D3B005B654967
(1732863323.956811) vcan0 27E##03B1B4940005B654967
(1732863323.958727) vcan0 312##04A7F824E005B654967
(1732863323.960237) vcan0 244##000000001995B654967
(1732863323.961250) vcan0 147##014291CF5005B654967
(1732863323.961218) vcan0 200##000000001995B654967
(1732863323.964707) vcan0 38A##05E8CCE99005B654967
(1732863323.968408) vcan0 1D7##03B1E896E005B654967
(1732863323.970538) vcan0 1C8##0364FFAA0005B654967
(1732863323.972525) vcan0 000##000000000005B654967
(1732863323.973189) vcan0 244##000000001755B654967
(1732863323.973552) vcan0 200##000000001755B654967
(1732863323.976412) vcan0 326##0427AEA88005B654967
(1732863323.978578) vcan0 000##000000000005B654967
(1732863323.980321) vcan0 000##000000000005B654967
(1732863323.982610) vcan0 3FC##06EA6A964005B654967
(1732863323.984098) vcan0 244##000000001E45B654967
(1732863323.984254) vcan0 200##000000001E45B654967
(1732863323.985671) vcan0 148##0503C32E8005B654967
(1732863323.987419) vcan0 000##000000000005B654967
(1732863323.989303) vcan0 136##01027889E005B654967
(1732863323.991963) vcan0 38E##03BE7010F005B654967
(1732863323.994916) vcan0 244##000000001535B654967
(1732863323.995438) vcan0 200##000000001535B654967
(1732863323.995930) vcan0 1D9##03660620C005B654967
(1732863323.999720) vcan0 1A4##0F1C94EC0005B654967
(1732863324.002522) vcan0 000##000000000005C654967
(1732863324.004361) vcan0 1E1##0545ABBE5005C654967
(1732863324.006631) vcan0 185##03D3D3FB8005C654967
(1732863324.006880) vcan0 244##000000001CA5C654967
(1732863324.006988) vcan0 200##000000001CA5C654967
(1732863324.009317) vcan0 153##078B0774D005C654967
(1732863324.011746) vcan0 258##07037DE21005C654967
(1732863324.013659) vcan0 353##013B2697E005C654967
(1732863324.015879) vcan0 000##000000000005C654967
(1732863324.017985) vcan0 2A7##01ACFDD49005C654967
(1732863324.020002) vcan0 244##000000001295C654967
(1732863324.020120) vcan0 200##000000001295C654967
(1732863324.020391) vcan0 000##000000000005C654967
(1732863324.023259) vcan0 2AD##07B8871EA005C654967
(1732863324.025720) vcan0 18B##06CEB8F4B005C654967
(1732863324.027538) vcan0 310##032EEEEC2005C654967
(1732863324.029518) vcan0 3E9##020F1EA9E005C654967
(1732863324.031205) vcan0 244##000000001055C654967
(1732863324.031327) vcan0 3D1##03A433DC3005C654967
(1732863324.031801) vcan0 200##000000001055C654967
(1732863324.035203) vcan0 000##000000000005C654967
(1732863324.037858) vcan0 2AF##058323105005C654967
(1732863324.039653) vcan0 000##000000000005C654967
(1732863324.041666) vcan0 000##000000000005C654967
(1732863324.042191) vcan0 244##000000001245C654967
(1732863324.042333) vcan0 200##000000001245C654967
(1732863324.044681) vcan0 000##000000000005C654967
(1732863324.046986) vcan0 133##01D6FFEA1005C654967
(1732863324.050356) vcan0 000##000000000005C654967
(1732863324.052328) vcan0 000##000000000005C654967
(1732863324.053127) vcan0 244##000000001085C654967
(1732863324.053224) vcan0 200##000000001085C654967
(1732863324.055252) vcan0 000##000000000005C654967
(1732863324.057323) vcan0 251##07808616E005C654967
(1732863324.059209) vcan0 16A##03373CFE0005C654967
(1732863324.060890) vcan0 358##06428B6F6005C654967
(1732863324.063478) vcan0 000##000000000005C654967
(1732863324.064191) vcan0 244##000000001C35C654967
(1732863324.064454) vcan0 200##000000001C35C654967
(1732863324.067490) vcan0 1B8##06D35E432005C654967
(1732863324.072045) vcan0 106##05ED95890005C654967
(1732863324.074141) vcan0 1F5##077A8C9B1005C654967
(1732863324.074802) vcan0 244##000000001415C654967
(1732863324.074891) vcan0 200##000000001415C654967
(1732863324.076368) vcan0 2FF##070D8F4A4005C654967
(1732863324.079054) vcan0 2B6##060EF7760005C654967
(1732863324.082159) vcan0 135##07C67E7A0005C654967
(1732863324.084126) vcan0 146##07613D7E0005C654967
(1732863324.087585) vcan0 1DD##06C293279005C654967
(1732863324.089474) vcan0 000##000000000005C654967
(1732863324.090838) vcan0 244##0000000013E5C654967
(1732863324.090934) vcan0 200##0000000013E5C654967
(1732863324.091434) vcan0 2FF##055F3A43F005C654967
(1732863324.094412) vcan0 344##07D4E2BCB005C654967
(1732863324.096501) vcan0 306##03D5DB995005C654967
(1732863324.098701) vcan0 139##02412EC71005C654967
(1732863324.102302) vcan0 244##000000001495C654967
(1732863324.102309) vcan0 200##000000001495C654967
(1732863324.103047) vcan0 293##068E76091005C654967
(1732863324.105523) vcan0 367##030B7C2DC005C654967
(1732863324.107456) vcan0 2FA##01F53491F005C654967
(1732863324.109445) vcan0 30E##08A270000005C654967
(1732863324.111571) vcan0 2A8##04566C904005C654967
(1732863324.113006) vcan0 244##000000001DC5C654967
(1732863324.113062) vcan0 200##000000001DC5C654967
(1732863324.114732) vcan0 1B1##0599D19A7005C654967
(1732863324.118944) vcan0 1A8##050263467005C654967
(1732863324.120929) vcan0 107##013BE36DD005C654967
(1732863324.123229) vcan0 000##000000000005C654967
(1732863324.125148) vcan0 000##000000000005C654967
(1732863324.127114) vcan0 000##000000000005C654967
(1732863324.128988) vcan0 000##000000000005C654967
(1732863324.129262) vcan0 244##000000001D25C654967
(1732863324.129276) vcan0 200##000000001D25C654967
(1732863324.132361) vcan0 000##000000000005C654967
(1732863324.134659) vcan0 390##01948A7C1005C654967
(1732863324.136444) vcan0 000##000000000005C654967
(1732863324.138553) vcan0 000##000000000005C654967
(1732863324.140688) vcan0 244##000000001295C654967
(1732863324.140917) vcan0 200##000000001295C654967
(1732863324.143474) vcan0 15B##045973799005C654967
(1732863324.146090) vcan0 269##01D9AC455005C654967
(1732863324.148396) vcan0 000##000000000005C654967
(1732863324.150969) vcan0 000##000000000005C654967
(1732863324.151446) vcan0 244##000000001F65C654967
(1732863324.151547) vcan0 200##000000001F65C654967
(1732863324.155411) vcan0 27B##026886E07005C654967
(1732863324.158094) vcan0 108##075840424005C654967
(1732863324.160070) vcan0 26E##01E550A0F005C654967
(1732863324.162189) vcan0 244##000000001875C654967
(1732863324.162303) vcan0 200##000000001875C654967
(1732863324.162870) vcan0 301##0433CBE76005C654967
(1732863324.165576) vcan0 000##000000000005C654967
(1732863324.169811) vcan0 000##000000000005C654967
(1732863324.171962) vcan0 3D8##031E1547C005C654967
(1732863324.174223) vcan0 000##000000000005C654967
(1732863324.176048) vcan0 3E1##04D32C790005C654967
(1732863324.177920) vcan0 244##000000001E05C654967
(1732863324.177945) vcan0 000##000000000005C654967
(1732863324.178009) vcan0 200##000000001E05C654967
(1732863324.181619) vcan0 143##050DAF085005C654967
(1732863324.184224) vcan0 000##000000000005C654967
(1732863324.186392) vcan0 000##000000000005C654967
(1732863324.188387) vcan0 2F3##07B5CA8D6005C654967
(1732863324.189911) vcan0 244##000000001085C654967
(1732863324.190013) vcan0 200##000000001085C654967
(1732863324.191673) vcan0 000##000000000005C654967
(1732863324.193987) vcan0 000##000000000005C654967
(1732863324.195911) vcan0 14F##06950813F005C654967
(1732863324.197885) vcan0 2E8##0679877BE005C654967
(1732863324.199705) vcan0 34E##08D9C1E90005C654967
(1732863324.201545) vcan0 234##04ABB3FAB005C654967
(1732863324.204014) vcan0 146##0730E2A8F005C654967
(1732863324.205610) vcan0 244##000000001BA5C654967
(1732863324.205706) vcan0 200##000000001BA5C654967
(1732863324.206613) vcan0 000##000000000005C654967
(1732863324.208638) vcan0 30B##04C7D19B8005C654967
(1732863324.211348) vcan0 1B1##041636EC0005C654967
(1732863324.214011) vcan0 231##01F43E204005C654967
(1732863324.216693) vcan0 244##000000001C95C654967
(1732863324.216806) vcan0 200##000000001C95C654967
(1732863324.218037) vcan0 3C7##0228AE374005C654967
(1732863324.220503) vcan0 28A##042E1F42F005C654967
(1732863324.223004) vcan0 212##0690FAA80005C654967
(1732863324.224829) vcan0 300##04D388505005C654967
(1732863324.226720) vcan0 37F##05EA2EF48005C654967
(1732863324.227369) vcan0 244##000000001755C654967
(1732863324.227479) vcan0 200##000000001755C654967
(1732863324.230279) vcan0 000##000000000005C654967
(1732863324.232317) vcan0 20C##0883C19D0005C654967
(1732863324.234106) vcan0 000##000000000005C654967
(1732863324.236431) vcan0 15B##0786BB843005C654967
(1732863324.238692) vcan0 2DE##01AF16F8F005C654967
(1732863324.239345) vcan0 244##000000001C95C654967
(1732863324.239811) vcan0 200##000000001C95C654967
(1732863324.242459) vcan0 3EF##01E632C24005C654967
(1732863324.244344) vcan0 21E##061E1C8BE005C654967
(1732863324.246449) vcan0 143##032EF1929005C654967
(1732863324.248679) vcan0 276##03BB582F4005C654967
(1732863324.251312) vcan0 244##0000000019B5C654967
(1732863324.251418) vcan0 200##0000000019B5C654967
(1732863324.252116) vcan0 000##000000000005C654967
(1732863324.255114) vcan0 000##000000000005C654967
(1732863324.257379) vcan0 000##000000000005C654967
(1732863324.259226) vcan0 000##000000000005C654967
(1732863324.260996) vcan0 22B##05B9B030B005C654967
(1732863324.261829) vcan0 244##000000001B95C654967
(1732863324.261959) vcan0 200##000000001B95C654967
(1732863324.264021) vcan0 334##05396D5AA005C654967
(1732863324.265479) vcan0 254##03020CF82005C654967
(1732863324.267756) vcan0 160##022F46460005C654967
(1732863324.269881) vcan0 11F##04BD2AE55005C654967
(1732863324.272575) vcan0 155##028C0CA7B005C654967
(1732863324.273805) vcan0 244##0000000015C5C654967
(1732863324.273885) vcan0 200##0000000015C5C654967
(1732863324.276140) vcan0 298##07C6A1833005C654967
(1732863324.278687) vcan0 20A##07655E870005C654967
(1732863324.280782) vcan0 000##000000000005C654967
(1732863324.283993) vcan0 345##04ABE419A005C654967
(1732863324.287997) vcan0 152##017A609BB005C654967
(1732863324.289864) vcan0 244##000000001CF5C654967
(1732863324.289982) vcan0 200##000000001CF5C654967
(1732863324.290523) vcan0 000##000000000005C654967
(1732863324.292415) vcan0 263##0616D2987005C654967
(1732863324.294662) vcan0 144##0398F3E7F005C654967
(1732863324.297028) vcan0 109##0852E9500005C654967
(1732863324.299010) vcan0 000##000000000005C654967
(1732863324.301108) vcan0 244##0000000010A5C654967
(1732863324.301441) vcan0 200##0000000010A5C654967
(1732863324.302397) vcan0 000##000000000005C654967
(1732863324.305645) vcan0 000##000000000005C654967
(1732863324.308561) vcan0 363##02CD1EA3E005C654967
(1732863324.310587) vcan0 310##0629E0830005C654967
(1732863324.311903) vcan0 244##000000001125C654967
(1732863324.312019) vcan0 200##000000001125C654967
(1732863324.313549) vcan0 000##000000000005C654967
(1732863324.315317) vcan0 2FE##03CE2FF2C005C654967
(1732863324.317582) vcan0 000##000000000005C654967
(1732863324.319657) vcan0 1B3##06399FCEF005C654967
(1732863324.321833) vcan0 131##02D8F84F9005C654967
(1732863324.324102) vcan0 28A##048EFA684005C654967
(1732863324.326155) vcan0 2B4##034CC0318005C654967
(1732863324.327555) vcan0 244##000000001065C654967
(1732863324.327711) vcan0 200##000000001065C654967
(1732863324.328393) vcan0 3EC##05C8AC117005C654967
(1732863324.330526) vcan0 000##000000000005C654967
(1732863324.332407) vcan0 396##042BE8DA9005C654967
(1732863324.334767) vcan0 280##01AF79C44005C654967
(1732863324.336633) vcan0 000##000000000005C654967
(1732863324.338069) vcan0 244##000000001BF5C654967
(1732863324.338290) vcan0 200##000000001BF5C654967
(1732863324.338717) vcan0 000##000000000005C654967
(1732863324.340641) vcan0 18B##05E16B890005C654967
(1732863324.342974) vcan0 3FA##010AE749B005C654967
(1732863324.344775) vcan0 000##000000000005C654967
(1732863324.347412) vcan0 100##03AF5F70A005C654967
(1732863324.348936) vcan0 244##000000001A35C654967
(1732863324.348981) vcan0 200##000000001A35C654967
(1732863324.351135) vcan0 3BA##025DDCD98005C654967
(1732863324.353244) vcan0 000##000000000005C654967
(1732863324.355455) vcan0 288##071E19544005C654967
(1732863324.357568) vcan0 266##037D00912005C654967
(1732863324.359476) vcan0 3C8##02C197D1B005C654967
(1732863324.360126) vcan0 244##000000001065C654967
(1732863324.360165) vcan0 200##000000001065C654967
(1732863324.362303) vcan0 000##000000000005C654967
(1732863324.364933) vcan0 232##02D538CA0005C654967
(1732863324.367597) vcan0 000##000000000005C654967
(1732863324.370072) vcan0 273##051FD0365005C654967
(1732863324.370817) vcan0 244##000000001AF5C654967
(1732863324.371009) vcan0 200##000000001AF5C654967
(1732863324.373041) vcan0 20D##0680E7500005C654967
(1732863324.375518) vcan0 241##07211F632005C654967
(1732863324.377535) vcan0 10C##052ED87CC005C654967
(1732863324.379566) vcan0 1BB##058B7E507005C654967
(1732863324.381593) vcan0 000##000000000005C654967
(1732863324.382128) vcan0 244##0000000010A5C654967
(1732863324.382372) vcan0 200##0000000010A5C654967
(1732863324.385036) vcan0 195##040AD1168005C654967
(1732863324.387175) vcan0 000##000000000005C654967
(1732863324.389238) vcan0 301##06C8780E4005C654967
(1732863324.391370) vcan0 2BC##07002A989005C654967
(1732863324.392846) vcan0 244##000000001CC5C654967
(1732863324.393026) vcan0 200##000000001CC5C654967
(1732863324.393774) vcan0 228##026255523005C654967
(1732863324.396403) vcan0 29B##0193A51F0005C654967
(1732863324.399167) vcan0 23E##0146EBEC5005C654967
(1732863324.402740) vcan0 1A4##05AE31070005C654967
(1732863324.404665) vcan0 38F##05D2A0E88005C654967
(1732863324.406719) vcan0 239##05CD7BE02005C654967
(1732863324.408690) vcan0 244##000000001D05C654967
(1732863324.408853) vcan0 200##000000001D05C654967
(1732863324.409067) vcan0 1ED##033572846005C654967
(1732863324.411196) vcan0 153##03286682E005C654967
(1732863324.413205) vcan0 279##07C8C165F005C654967
(1732863324.415032) vcan0 3FB##01D5C8034005C654967
(1732863324.416702) vcan0 366##0690FEC63005C654967
(1732863324.418797) vcan0 1FC##06624ECFB005C654967
(1732863324.419417) vcan0 244##000000001CB5C654967
(1732863324.419556) vcan0 200##000000001CB5C654967
(1732863324.422069) vcan0 1CB##0604FD2CD005C654967
(1732863324.423975) vcan0 24A##01047DCCC005C654967
(1732863324.426955) vcan0 3B1##02B535107005C654967
(1732863324.429234) vcan0 255##02B4069D9005C654967
(1732863324.430060) vcan0 244##000000001F15C654967
(1732863324.430356) vcan0 200##000000001F15C654967
(1732863324.430402) vcan0 188##000000000005C654967
(1732863324.434374) vcan0 22A##0281D38F0005C654967
(1732863324.438052) vcan0 3C9##023B77868005C654967
(1732863324.439994) vcan0 3B6##01D1C2D6D005C654967
(1732863324.441290) vcan0 244##000000001305C654967
(1732863324.441378) vcan0 200##000000001305C654967
(1732863324.442866) vcan0 000##000000000005C654967
(1732863324.444852) vcan0 3F6##0783BD712005C654967
(1732863324.447532) vcan0 148##0296D4DE3005C654967
(1732863324.449676) vcan0 358##01400529B005C654967
(1732863324.451422) vcan0 212##050FC1DD1005C654967
(1732863324.452039) vcan0 244##000000001AA5C654967
(1732863324.452062) vcan0 200##000000001AA5C654967
(1732863324.455269) vcan0 000##000000000005C654967
(1732863324.457640) vcan0 206##065D06461005C654967
(1732863324.460884) vcan0 270##0FB3CC020005C654967
(1732863324.463129) vcan0 15C##07434903B005C654967
(1732863324.466003) vcan0 2CF##038073BA7005C654967
(1732863324.468353) vcan0 244##000000001CC5C654967
(1732863324.468475) vcan0 200##000000001CC5C654967
(1732863324.469137) vcan0 108##03CDAF281005C654967
(1732863324.472076) vcan0 000##000000000005C654967
(1732863324.474451) vcan0 000##000000000005C654967
(1732863324.476571) vcan0 000##000000000005C654967
(1732863324.479026) vcan0 340##069702404005C654967
(1732863324.479534) vcan0 244##000000001165C654967
(1732863324.479602) vcan0 200##000000001165C654967
(1732863324.482206) vcan0 191##057253418005C654967
(1732863324.484405) vcan0 349##043F88187005C654967
(1732863324.486644) vcan0 32A##06DE7C091005C654967
(1732863324.488431) vcan0 36B##07AF40A83005C654967
(1732863324.490146) vcan0 244##000000001225C654967
(1732863324.490231) vcan0 200##000000001225C654967
(1732863324.490709) vcan0 32C##04959857D005C654967
(1732863324.493527) vcan0 000##000000000005C654967
(1732863324.495595) vcan0 38A##03A48C65A005C654967
(1732863324.497535) vcan0 000##000000000005C654967
(1732863324.500488) vcan0 25C##0443A31E4005C654967
(1732863324.501088) vcan0 244##000000001BA5C654967
(1732863324.501387) vcan0 200##000000001BA5C654967
(1732863324.504229) vcan0 235##03A00312C005C654967
(1732863324.506468) vcan0 18B##06DE9BB3D005C654967
(1732863324.508472) vcan0 3AD##05F9BFA39005C654967
(1732863324.511424) vcan0 29B##05EF68007005C654967
(1732863324.512206) vcan0 244##0000000015B5C654967
(1732863324.512508) vcan0 200##0000000015B5C654967
(1732863324.514655) vcan0 111##01F94DAE9005C654967
(1732863324.516422) vcan0 000##000000000005C654967
(1732863324.518682) vcan0 2ED##0553EDDBD005C654967
(1732863324.520372) vcan0 000##000000000005C654967
(1732863324.523002) vcan0 244##000000001355C654967
(1732863324.523981) vcan0 200##000000001355C654967
(1732863324.524001) vcan0 344##013801794005C654967
(1732863324.526447) vcan0 2C8##069D2EAF0005C654967
(1732863324.528473) vcan0 217##03614E5F4005C654967
(1732863324.530229) vcan0 000##000000000005C654967
(1732863324.533597) vcan0 21B##07AB7DFB6005C654967
(1732863324.534508) vcan0 244##000000001DE5C654967
(1732863324.534644) vcan0 200##000000001DE5C654967
(1732863324.536217) vcan0 000##000000000005C654967
(1732863324.538398) vcan0 1B0##05EA9A323005C654967
(1732863324.540298) vcan0 000##000000000005C654967
(1732863324.542647) vcan0 000##000000000005C654967
(1732863324.544491) vcan0 323##0F84F7FC0005C654967
(1732863324.544928) vcan0 244##000000001575C654967
(1732863324.545018) vcan0 200##000000001575C654967
(1732863324.548367) vcan0 000##000000000005C654967
(1732863324.550102) vcan0 000##000000000005C654967
(1732863324.553933) vcan0 000##000000000005C654967
(1732863324.555767) vcan0 1B0##062922F94005C654967
(1732863324.555985) vcan0 244##000000001DA5C654967
(1732863324.556067) vcan0 200##000000001DA5C654967
(1732863324.559900) vcan0 1EC##0266DEE1A005C654967
(1732863324.562542) vcan0 1CB##0687E4D30005C654967
(1732863324.565071) vcan0 1AE##05D041493005C654967
(1732863324.567798) vcan0 3E0##0486227C6005C654967
(1732863324.569553) vcan0 287##03F12300C005C654967
(1732863324.571603) vcan0 232##05BA25CA3005C654967
(1732863324.572446) vcan0 244##000000001B45C654967
(1732863324.572499) vcan0 200##000000001B45C654967
(1732863324.574118) vcan0 3C3##0377382F8005C654967
(1732863324.575928) vcan0 346##029BAAD73005C654967
(1732863324.577602) vcan0 21B##0217913CE005C654967
(1732863324.579614) vcan0 159##02EC6FA6A005C654967
(1732863324.582166) vcan0 1E2##04A60407D005C654967
(1732863324.583825) vcan0 244##000000001BD5C654967
(1732863324.584071) vcan0 200##000000001BD5C654967
(1732863324.584654) vcan0 266##03A8D22F0005C654967
(1732863324.588081) vcan0 23B##02CC76A6A005C654967
(1732863324.590098) vcan0 38D##05DE5C6E3005C654967
(1732863324.592120) vcan0 299##05B4CBD3D005C654967
(1732863324.594320) vcan0 277##076166885005C654967
(1732863324.596354) vcan0 357##0694F3842005C654967
(1732863324.598398) vcan0 1B5##03BA8B106005C654967
(1732863324.599441) vcan0 244##0000000016B5C654967
(1732863324.599529) vcan0 200##0000000016B5C654967
(1732863324.601448) vcan0 000##000000000005C654967
(1732863324.603668) vcan0 000##000000000005C654967
(1732863324.605595) vcan0 1A2##026D14AFE005C654967
(1732863324.607235) vcan0 000##000000000005C654967
(1732863324.608899) vcan0 1F6##0517F4346005C654967
(1732863324.610320) vcan0 244##000000001995C654967
(1732863324.610409) vcan0 200##000000001995C654967
(1732863324.610864) vcan0 2D8##07461F412005C654967
(1732863324.613192) vcan0 315##0735FB832005C654967
(1732863324.617264) vcan0 27C##015BB4CF7005C654967
(1732863324.619907) vcan0 000##000000000005C654967
(1732863324.620931) vcan0 244##000000001745C654967
(1732863324.621007) vcan0 200##000000001745C654967
(1732863324.622713) vcan0 326##042188EEA005C654967
(1732863324.624876) vcan0 34D##01261FAB3005C654967
(1732863324.627295) vcan0 1CD##0350BC5E6005C654967
(1732863324.629162) vcan0 3F1##060764C45005C654967
(1732863324.631057) vcan0 26B##06F696348005C654967
(1732863324.633085) vcan0 000##000000000005C654967
(1732863324.635118) vcan0 000##000000000005C654967
(1732863324.636848) vcan0 1B6##02F1CED1A005C654967
(1732863324.637363) vcan0 244##000000001C15C654967
(1732863324.637389) vcan0 200##000000001C15C654967
(1732863324.639420) vcan0 000##000000000005C654967
(1732863324.641012) vcan0 000##000000000005C654967
(1732863324.643182) vcan0 000##000000000005C654967
(1732863324.645036) vcan0 000##000000000005C654967
(1732863324.647372) vcan0 221##0630B5715005C654967
(1732863324.648033) vcan0 244##000000001935C654967
(1732863324.648757) vcan0 200##000000001935C654967
(1732863324.651785) vcan0 3C7##04BBDE89D005C654967
(1732863324.653904) vcan0 000##000000000005C654967
(1732863324.655809) vcan0 180##0122AC332005C654967
(1732863324.657645) vcan0 361##03B6F14CD005C654967
(1732863324.659591) vcan0 244##000000001E05C654967
(1732863324.659645) vcan0 200##000000001E05C654967
(1732863324.659751) vcan0 1E6##02E339D2E005C654967
(1732863324.663136) vcan0 2B3##0123B75D7005C654967
(1732863324.665116) vcan0 173##01B9D091E005C654967
(1732863324.667002) vcan0 11F##0586F6DFB005C654967
(1732863324.669602) vcan0 13F##02CB6ED6E005C654967
(1732863324.671014) vcan0 244##000000001E75C654967
(1732863324.671334) vcan0 200##000000001E75C654967
(1732863324.671589) vcan0 358##07CBB02F5005C654967
(1732863324.674104) vcan0 288##0520D5812005C654967
(1732863324.676901) vcan0 24D##031C212A1005C654967
(1732863324.679329) vcan0 000##000000000005C654967
(1732863324.681371) vcan0 000##000000000005C654967
(1732863324.682675) vcan0 244##000000001415C654967
(1732863324.682777) vcan0 200##000000001415C654967
(1732863324.684153) vcan0 29F##0E8A12D10005C654967
(1732863324.686354) vcan0 3E2##034F42A67005C654967
(1732863324.688375) vcan0 36E##03C860FEE005C654967
(1732863324.690397) vcan0 2DD##077AC4EF0005C654967
(1732863324.692442) vcan0 321##0F462A3E0005C654967
(1732863324.693828) vcan0 244##000000001025C654967
(1732863324.693908) vcan0 200##000000001025C654967
(1732863324.695304) vcan0 1BC##0733D9107005C654967
(1732863324.697401) vcan0 36D##03364B470005C654967
(1732863324.699674) vcan0 2DE##04C23B0E0005C654967
(1732863324.703489) vcan0 18E##071DDFFD0005C654967
(1732863324.704481) vcan0 244##000000001435C654967
(1732863324.704656) vcan0 200##000000001435C654967
(1732863324.707456) vcan0 2DB##07455AACD005C654967
(1732863324.709408) vcan0 16B##0D1B5E330005C654967
(1732863324.711811) vcan0 1C2##0FA8A7F40005C654967
(1732863324.715200) vcan0 245##051F5280F005C654967
(1732863324.715533) vcan0 244##000000001825C654967
(1732863324.715550) vcan0 200##000000001825C654967
(1732863324.719062) vcan0 295##04FC9CB11005C654967
(1732863324.721292) vcan0 319##0275FD345005C654967
(1732863324.723538) vcan0 3DE##0426F5B90005C654967
(1732863324.725696) vcan0 216##0743D4BC0005C654967
(1732863324.727299) vcan0 244##000000001A55C654967
(1732863324.727415) vcan0 200##000000001A55C654967
(1732863324.727747) vcan0 000##000000000005C654967
(1732863324.730696) vcan0 3AE##03A2C02FD005C654967
(1732863324.732981) vcan0 273##07F742ECF005C654967
(1732863324.735064) vcan0 13C##05A968030005C654967
(1732863324.736844) vcan0 3D6##06EBF4A90005C654967
(1732863324.738851) vcan0 000##000000000005C654967
(1732863324.739237) vcan0 244##0000000010E5C654967
(1732863324.739291) vcan0 200##0000000010E5C654967
(1732863324.741791) vcan0 189##05CFCF22E005C654967
(1732863324.743740) vcan0 2B2##077A2C465005C654967
(1732863324.745489) vcan0 000##000000000005C654967
(1732863324.747892) vcan0 298##042634ABE005C654967
(1732863324.750689) vcan0 244##000000001285C654967
(1732863324.750773) vcan0 200##000000001285C654967
(1732863324.752112) vcan0 000##000000000005C654967
(1732863324.755201) vcan0 2CE##0430D6A60005C654967
(1732863324.757087) vcan0 3EF##071E7FDE7005C654967
(1732863324.759302) vcan0 1EB##0642E83CD005C654967
(1732863324.761061) vcan0 3A0##0617A9001005C654967
(1732863324.761686) vcan0 244##0000000018E5C654967
(1732863324.761738) vcan0 200##0000000018E5C654967
(1732863324.764277) vcan0 38D##02F2A13C0005C654967
(1732863324.765962) vcan0 186##092F2B3C0005C654967
(1732863324.768312) vcan0 2BE##095917F90005C654967
(1732863324.771019) vcan0 20B##032C843FA005C654967
(1732863324.772455) vcan0 244##000000001FB5C654967
(1732863324.772513) vcan0 200##000000001FB5C654967
(1732863324.774084) vcan0 000##000000000005C654967
(1732863324.775739) vcan0 000##000000000005C654967
(1732863324.777450) vcan0 000##000000000005C654967
(1732863324.779410) vcan0 2F8##072C88748005C654967
(1732863324.781432) vcan0 291##0203A5BF4005C654967
(1732863324.783490) vcan0 244##000000001905C654967
(1732863324.783586) vcan0 200##000000001905C654967
(1732863324.784491) vcan0 366##0924C52A0005C654967
(1732863324.787142) vcan0 2B2##068AC1777005C654967
(1732863324.789202) vcan0 208##076F61980005C654967
(1732863324.791275) vcan0 21E##020BC41F7005C654967
(1732863324.793379) vcan0 368##0186D9809005C654967
(1732863324.794276) vcan0 244##0000000011B5C654967
(1732863324.794357) vcan0 200##0000000011B5C654967
(1732863324.795376) vcan0 1C5##05EED0B08005C654967
(1732863324.798022) vcan0 000##000000000005C654967
(1732863324.799905) vcan0 2C9##06B949991005C654967
(1732863324.802208) vcan0 000##000000000005C654967
(1732863324.804126) vcan0 18A##06F291A9A005C654967
(1732863324.805224) vcan0 244##000000001C85C654967
(1732863324.805445) vcan0 200##000000001C85C654967
(1732863324.807337) vcan0 181##058DD49B4005C654967
(1732863324.809046) vcan0 000##000000000005C654967
(1732863324.810986) vcan0 27D##05DFE1512005C654967
(1732863324.813033) vcan0 000##000000000005C654967
(1732863324.816677) vcan0 244##000000001555C654967
(1732863324.816771) vcan0 200##000000001555C654967
(1732863324.816980) vcan0 000##000000000005C654967
(1732863324.819642) vcan0 169##076AC97C1005C654967
(1732863324.821943) vcan0 000##000000000005C654967
(1732863324.823882) vcan0 338##06B449614005C654967
(1732863324.825703) vcan0 19C##04C359D56005C654967
(1732863324.827598) vcan0 000##000000000005C654967
(1732863324.827983) vcan0 244##000000001845C654967
(1732863324.828118) vcan0 200##000000001845C654967
(1732863324.831090) vcan0 160##010EB9DD0005C654967
(1732863324.833566) vcan0 000##000000000005C654967
(1732863324.835507) vcan0 323##0696032D6005C654967
(1732863324.839347) vcan0 2FC##054C7F3B1005C654967
(1732863324.842376) vcan0 000##000000000005C654967
(1732863324.844345) vcan0 24B##0B02E1DE0005C654967
(1732863324.845222) vcan0 244##000000001FA5C654967
(1732863324.845465) vcan0 200##000000001FA5C654967
(1732863324.847919) vcan0 23A##02E6F42C7005C654967
(1732863324.850146) vcan0 000##000000000005C654967
(1732863324.851965) vcan0 3DA##05F9A2452005C654967
(1732863324.853835) vcan0 22D##05D33F435005C654967
(1732863324.855580) vcan0 334##0364D0F97005C654967
(1732863324.856124) vcan0 244##000000001155C654967
(1732863324.856222) vcan0 200##000000001155C654967
(1732863324.858117) vcan0 3F6##052E74F40005C654967
(1732863324.859745) vcan0 3B3##033393B2E005C654967
(1732863324.862454) vcan0 154##06652D94F005C654967
(1732863324.864203) vcan0 000##000000000005C654967
(1732863324.867600) vcan0 254##064120DE5005C654967
(1732863324.870564) vcan0 330##03DF7F661005C654967
(1732863324.872020) vcan0 244##0000000015A5C654967
(1732863324.872116) vcan0 200##0000000015A5C654967
(1732863324.873126) vcan0 350##0495A8E53005C654967
(1732863324.875357) vcan0 137##0CBD624C0005C654967
(1732863324.877274) vcan0 205##082591940005C654967
(1732863324.879523) vcan0 2D2##062139050005C654967
(1732863324.881513) vcan0 372##063B5FD0D005C654967
(1732863324.883441) vcan0 318##021507740005C654967
(1732863324.885354) vcan0 1C5##01CF02AF2005C654967
(1732863324.887324) vcan0 3C6##042CBE3F2005C654967
(1732863324.888038) vcan0 244##000000001725C654967
(1732863324.888138) vcan0 200##000000001725C654967
(1732863324.891163) vcan0 327##0365D82FB005C654967
(1732863324.892826) vcan0 389##04E04AB1D005C654967
(1732863324.895648) vcan0 23B##04BEDDB3C005C654967
(1732863324.898590) vcan0 24B##04770B790005C654967
(1732863324.899948) vcan0 244##000000001E75C654967
(1732863324.900285) vcan0 200##000000001E75C654967
(1732863324.901619) vcan0 000##000000000005C654967
(1732863324.903853) vcan0 000##000000000005C654967
(1732863324.906282) vcan0 000##000000000005C654967
(1732863324.908168) vcan0 141##0275C3805005C654967
(1732863324.910355) vcan0 274##07A3FB678005C654967
(1732863324.912501) vcan0 251##05432E079005C654967
(1732863324.914471) vcan0 000##000000000005C654967
(1732863324.916225) vcan0 244##000000001D55C654967
(1732863324.916390) vcan0 200##000000001D55C654967
(1732863324.916516) vcan0 000##000000000005C654967
(1732863324.919933) vcan0 231##046C943E1005C654967
(1732863324.922177) vcan0 2F2##02A03A7F6005C654967
(1732863324.925995) vcan0 2D3##07951EEB8005C654967
(1732863324.928158) vcan0 244##000000001675C654967
(1732863324.928308) vcan0 200##000000001675C654967
(1732863324.928513) vcan0 3E8##05DDD8DFA005C654967
(1732863324.931887) vcan0 1B3##065E87F72005C654967
(1732863324.933542) vcan0 188##000000000005C654967
(1732863324.935587) vcan0 117##038F443EF005C654967
(1732863324.937714) vcan0 2AE##02D201F63005C654967
(1732863324.939902) vcan0 37F##064170F3A005C654967
(1732863324.940213) vcan0 244##000000001DD5C654967
(1732863324.940317) vcan0 200##000000001DD5C654967
(1732863324.942072) vcan0 233##01202706F005C654967
(1732863324.945269) vcan0 21A##0128BAAE9005C654967
(1732863324.947643) vcan0 000##000000000005C654967
(1732863324.950165) vcan0 2EE##034C89F03005C654967
(1732863324.951147) vcan0 244##000000001A55C654967
(1732863324.951245) vcan0 200##000000001A55C654967
(1732863324.954423) vcan0 1D3##06E017D40005C654967
(1732863324.956746) vcan0 37C##0489331DF005C654967
(1732863324.959510) vcan0 264##03F41F046005C654967
(1732863324.962089) vcan0 15D##05180C495005C654967
(1732863324.964101) vcan0 000##000000000005C654967
(1732863324.964271) vcan0 244##000000001C05C654967
(1732863324.964432) vcan0 200##000000001C05C654967
(1732863324.968264) vcan0 000##000000000005C654967
(1732863324.970603) vcan0 308##06853F873005C654967
(1732863324.972752) vcan0 000##000000000005C654967
(1732863324.975067) vcan0 244##000000001655C654967
(1732863324.975179) vcan0 200##000000001655C654967
(1732863324.975840) vcan0 3E5##073846A0D005C654967
(1732863324.978142) vcan0 000##000000000005C654967
(1732863324.979895) vcan0 170##0581E5029005C654967
(1732863324.982071) vcan0 1CE##04E7167A3005C654967
(1732863324.983924) vcan0 000##000000000005C654967
(1732863324.986029) vcan0 244##000000001DB5C654967
(1732863324.986139) vcan0 28C##068D90128005C654967
(1732863324.986241) vcan0 200##000000001DB5C654967
(1732863324.988584) vcan0 344##01AE4F57B005C654967
(1732863324.991022) vcan0 000##000000000005C654967
(1732863324.992868) vcan0 2BB##0269D1FA8005C654967
(1732863324.994726) vcan0 2F7##076CC951F005C654967
(1732863324.996569) vcan0 3EE##01600C455005C654967
(1732863324.997213) vcan0 244##000000001D15C654967
(1732863324.997489) vcan0 200##000000001D15C654967
(1732863324.999932) vcan0 1B4##06BEA4415005C654967
(1732863325.002662) vcan0 000##000000000005D654967
(1732863325.004450) vcan0 310##07ADA13AC005D654967
(1732863325.006706) vcan0 2B2##01D511806005D654967
(1732863325.008593) vcan0 000##000000000005D654967
(1732863325.008889) vcan0 244##000000001C25D654967
(1732863325.009250) vcan0 200##000000001C25D654967
(1732863325.011235) vcan0 213##071587912005D654967
(1732863325.013333) vcan0 12C##0317A0B83005D654967
(1732863325.015466) vcan0 13C##05E9EEAFA005D654967
(1732863325.017237) vcan0 326##0339789D4005D654967
(1732863325.021114) vcan0 2E3##060E885B3005D654967
(1732863325.021477) vcan0 244##0000000010A5D654967
(1732863325.021632) vcan0 200##0000000010A5D654967
(1732863325.023461) vcan0 2FC##064EE2E28005D654967
(1732863325.025533) vcan0 32E##03A122B28005D654967
(1732863325.027331) vcan0 340##04B3EDE90005D654967
(1732863325.029358) vcan0 2D0##0C1AAA370005D654967
(1732863325.031282) vcan0 308##0468E5ABE005D654967
(1732863325.032547) vcan0 244##000000001CD5D654967
(1732863325.032722) vcan0 200##000000001CD5D654967
(1732863325.035868) vcan0 28C##043CDDCBC005D654967
(1732863325.038051) vcan0 2D3##02DDFE331005D654967
(1732863325.039876) vcan0 2FB##082785E40005D654967
(1732863325.042338) vcan0 2DD##033C561AD005D654967
(1732863325.044055) vcan0 244##000000001C55D654967
(1732863325.044140) vcan0 200##000000001C55D654967
(1732863325.044989) vcan0 1EA##042591B45005D654967
(1732863325.047223) vcan0 000##000000000005D654967
(1732863325.049151) vcan0 000##000000000005D654967
(1732863325.053118) vcan0 380##07D285D94005D654967
(1732863325.055810) vcan0 000##000000000005D654967
(1732863325.057972) vcan0 368##0430AFF4F005D654967
(1732863325.059871) vcan0 244##000000001685D654967
(1732863325.059979) vcan0 200##000000001685D654967
(1732863325.060169) vcan0 000##000000000005D654967
(1732863325.063539) vcan0 177##044699F87005D654967
(1732863325.065317) vcan0 18D##07C3400B7005D654967
(1732863325.067460) vcan0 170##067F1E85D005D654967
(1732863325.069457) vcan0 2EF##0449E1078005D654967
(1732863325.070765) vcan0 244##0000000016C5D654967
(1732863325.071092) vcan0 200##0000000016C5D654967
(1732863325.071742) vcan0 31B##02A6A197B005D654967
(1732863325.074688) vcan0 134##060F8E1EE005D654967
(1732863325.076297) vcan0 000##000000000005D654967
(1732863325.078165) vcan0 3D2##0103F38A0005D654967
(1732863325.081810) vcan0 244##000000001245D654967
(1732863325.081951) vcan0 200##000000001245D654967
(1732863325.083393) vcan0 1DD##0E9905BC0005D654967
(1732863325.086301) vcan0 2CF##071F88A22005D654967
(1732863325.088412) vcan0 1B9##0770EA327005D654967
(1732863325.090374) vcan0 394##02CAF5139005D654967
(1732863325.092461) vcan0 244##000000001865D654967
(1732863325.092586) vcan0 200##000000001865D654967
(1732863325.093069) vcan0 000##000000000005D654967
(1732863325.095196) vcan0 3E0##024F6E824005D654967
(1732863325.097194) vcan0 34F##05CFF1439005D654967
(1732863325.099436) vcan0 289##0CD4E4C70005D654967
(1732863325.101705) vcan0 3C1##07969F816005D654967
(1732863325.103239) vcan0 244##0000000012C5D654967
(1732863325.103362) vcan0 200##0000000012C5D654967
(1732863325.105132) vcan0 17E##06A864131005D654967
(1732863325.107119) vcan0 000##000000000005D654967
(1732863325.108696) vcan0 1AA##0FDC238E0005D654967
(1732863325.112071) vcan0 1E9##037903EDE005D654967
(1732863325.113801) vcan0 17C##0140BA695005D654967
(1732863325.114176) vcan0 244##0000000014F5D654967
(1732863325.114230) vcan0 200##0000000014F5D654967
(1732863325.116565) vcan0 30E##059F56D4F005D654967
(1732863325.119140) vcan0 21F##0B6CC0EB0005D654967
(1732863325.121336) vcan0 30B##0586CA8EF005D654967
(1732863325.123491) vcan0 30D##02D7598C5005D654967
(1732863325.125142) vcan0 244##000000001CA5D654967
(1732863325.125375) vcan0 200##000000001CA5D654967
(1732863325.126078) vcan0 000##000000000005D654967
(1732863325.128653) vcan0 1FE##043B24CD2005D654967
(1732863325.131417) vcan0 2A1##06E87D9DE005D654967
(1732863325.133537) vcan0 000##000000000005D654967
(1732863325.136134) vcan0 244##000000001565D654967
(1732863325.136232) vcan0 200##000000001565D654967
(1732863325.138486) vcan0 218##05AD08F7F005D654967
(1732863325.140539) vcan0 2B8##06CEFA1D9005D654967
(1732863325.143455) vcan0 395##03484B036005D654967
(1732863325.145366) vcan0 30A##035966808005D654967
(1732863325.146965) vcan0 244##000000001E75D654967
(1732863325.147069) vcan0 200##000000001E75D654967
(1732863325.148081) vcan0 000##000000000005D654967
(1732863325.152624) vcan0 396##019DEA8D0005D654967
(1732863325.154992) vcan0 393##036479112005D654967
(1732863325.157026) vcan0 122##05C642A10005D654967
(1732863325.159212) vcan0 261##02AB92B42005D654967
(1732863325.161198) vcan0 38C##078CB716D005D654967
(1732863325.162870) vcan0 244##000000001775D654967
(1732863325.162987) vcan0 200##000000001775D654967
(1732863325.164666) vcan0 000##000000000005D654967
(1732863325.167050) vcan0 232##052A12047005D654967
(1732863325.168956) vcan0 13B##065F43000005D654967
(1732863325.171067) vcan0 119##0605DF3DC005D654967
(1732863325.173190) vcan0 20F##07EFCA20F005D654967
(1732863325.173554) vcan0 244##0000000010E5D654967
(1732863325.173873) vcan0 200##0000000010E5D654967
(1732863325.175755) vcan0 1CD##03A74BC27005D654967
(1732863325.177735) vcan0 18E##02A80A485005D654967
(1732863325.179616) vcan0 123##05F0554BC005D654967
(1732863325.181656) vcan0 10A##0639E212B005D654967
(1732863325.183441) vcan0 160##057475BF0005D654967
(1732863325.184641) vcan0 244##000000001CB5D654967
